! Created Wed May 30 18:34:37 2007
# hz S ri R 50
! 4 Port Network Data from SP1.SP block
! freq  reS11  imS11  reS12  imS12  reS13  imS13  reS14  imS14  
!       reS21  imS21  reS22  imS22  reS23  imS23  reS24  imS24  
!       reS31  imS31  reS32  imS32  reS33  imS33  reS34  imS34  
!       reS41  imS41  reS42  imS42  reS43  imS43  reS44  imS44  
!     
          10000000       0.333327616     -0.00279251517    6.68933338e-007     0.000209437215        0.666662668     -0.00181513409    9.32123152e-007     0.000209436871
                  6.68933338e-007     0.000209437215   -4.40018673e-006     -0.00109954876    4.00263153e-007     0.000104718356        0.999996587     -0.00235619084
                      0.666662668     -0.00181513409    4.00263153e-007     0.000104718356        0.333331027    -0.000488686576    5.31857899e-007     0.000104718101
                  9.32123152e-007     0.000209436871        0.999996587     -0.00235619084    5.31857899e-007     0.000104718101   -8.47140904e-007     -0.00109955705

          60000000        0.33312755      -0.0167526478    2.40733916e-005      0.00125614146        0.666522724      -0.0108890554    3.35486819e-005      0.00125606702
                  2.40733916e-005      0.00125614146    -0.000158391728     -0.00659547323     1.4404262e-005     0.000628016425        0.999877127      -0.0141363783
                      0.666522724      -0.0108890554     1.4404262e-005     0.000628016425        0.333250313     -0.00293094058    1.91416994e-005     0.000627961347
                  3.35486819e-005      0.00125606702        0.999877127      -0.0141363783    1.91416994e-005     0.000627961347   -3.04968952e-005     -0.00659726356

         110000000       0.332641917       -0.030702315    8.08463833e-005      0.00230078245        0.666183036      -0.0199554841     0.000112697607      0.00230032347
                  8.08463833e-005      0.00230078245    -0.000532249824      -0.0120836019    4.83718143e-005      0.00115005691        0.999587042      -0.0259132797
                      0.666183036      -0.0199554841    4.83718143e-005      0.00115005691        0.333054416     -0.00536814509    6.42950793e-005      0.00114971736
                   0.000112697607      0.00230032347        0.999587042      -0.0259132797    6.42950793e-005      0.00114971736    -0.000102502012      -0.0120946326

         160000000       0.331871324      -0.0446328185     0.000170822152       0.0033416482         0.66564404       -0.029008193     0.000238222306      0.00334023426
                   0.000170822152       0.0033416482     -0.00112567116      -0.0175574443     0.000102197703       0.0016697967        0.999126408      -0.0376841581
                       0.66564404       -0.029008193     0.000102197703       0.0016697967        0.332743645     -0.00779610398     0.000135887268      0.00166875104
                   0.000238222306      0.00334023426        0.999126408      -0.0376841581     0.000135887268      0.00166875104    -0.000216858949      -0.0175913835

         210000000        0.33081673      -0.0585355002     0.000293738208      0.00437703964        0.664906426      -0.0380409837     0.000409874669      0.00437383815
                   0.000293738208      0.00437703964      -0.0019381743      -0.0230105206     0.000175715351      0.00218620131        0.998495348      -0.0494462779
                      0.664906426      -0.0380409837     0.000175715351      0.00218620131        0.332318487      -0.0102106418     0.000233752356      0.00218383479
                   0.000409874669      0.00437383815        0.998495348      -0.0494462779     0.000233752356      0.00218383479    -0.000373562179      -0.0230872364

         260000000       0.329479445      -0.0724017605      0.00044923637      0.00540527647        0.663971138      -0.0470476999     0.000627315876      0.00539918949
                    0.00044923637      0.00540527647     -0.00296910002      -0.0284363665     0.000268697536      0.00269824872        0.997694027      -0.0611969068
                      0.663971138      -0.0470476999     0.000268697536      0.00269824872        0.331779608      -0.0126076133     0.000357663827      0.00269375185
                   0.000627315876      0.00539918949        0.997694027      -0.0611969068     0.000357663827      0.00269375185    -0.000572604317      -0.0285819125

         310000000       0.327861128      -0.0862230756     0.000636864186      0.00642470285         0.66283937      -0.0560222399     0.000890117494      0.00641436296
                   0.000636864186      0.00642470285     -0.00421761189      -0.0338285381     0.000380857378      0.00320493313        0.996722658      -0.0729333157
                       0.66283937      -0.0560222399     0.000380857378      0.00320493313         0.33112785      -0.0149829122     0.000507335349      0.00319729966
                   0.000890117494      0.00641436296        0.996722658      -0.0729333157     0.000507335349      0.00319729966    -0.000813976302      -0.0340751345

         360000000       0.325963777      -0.0999910158     0.000856076726      0.00743369302         0.66151256      -0.0649585695      0.00119776287      0.00741745821
                   0.000856076726      0.00743369302     -0.00568269691      -0.0391806164     0.000511849568      0.00370526875        0.995581498        -0.08465278
                       0.66151256      -0.0649585695     0.000511849568      0.00370526875        0.330364229      -0.0173324804     0.000682421755      0.00369329309
                    0.00119776287      0.00741745821        0.995581498        -0.08465278     0.000682421755      0.00369329309     -0.00109766761      -0.0395666273

         410000000       0.323789727       -0.113697261      0.00110623873      0.00843065674        0.659992391      -0.0738507341      0.00154964878      0.00840660448
                    0.00110623873      0.00843065674     -0.00736316628      -0.0444862124     0.000661271848      0.00419829331        0.994270846      -0.0963525805
                      0.659992391      -0.0738507341     0.000661271848      0.00419829331        0.329489931      -0.0196523171     0.000882520239      0.00418056759
                    0.00154964878      0.00840660448        0.994270846      -0.0963525805     0.000882520239      0.00418056759     -0.00142366654      -0.0450561176

         460000000       0.321341641       -0.127333621      0.00138662709      0.00941404457        0.658280777      -0.0826928708      0.00194508737      0.00937996499
                    0.00138662709      0.00941404457     -0.00925765635      -0.0497389715     0.000828666735      0.00468307162        0.992791049       -0.108030004
                      0.658280777      -0.0826928708     0.000828666735      0.00468307162        0.328506308      -0.0219384866      0.00110717173       0.0046579823
                    0.00194508737      0.00937996499        0.992791049       -0.108030004      0.00110717173       0.0046579823     -0.00179196049      -0.0505433345

         510000000         0.3186225       -0.140892044      0.00169643369        0.010382353        0.656379867      -0.0914792194      0.00238330836       0.0103357412
                    0.00169643369        0.010382353      -0.0113646297      -0.0549325785      0.00101352346       0.0051586989        0.991142494       -0.119682343
                      0.656379867      -0.0914792194      0.00101352346       0.0051586989        0.327414875      -0.0241871271      0.00135586244      0.00512442302
                    0.00238330836       0.0103357412        0.991142494       -0.119682343      0.00135586244      0.00512442302     -0.00220253632      -0.0560280101

         560000000       0.315635597       -0.154364642      0.00203476856       0.0113341292        0.654292032       -0.100204134      0.00286346144       0.0112721771
                    0.00203476856       0.0113341292      -0.0136823763       -0.060060762      0.00121528013      0.00562430398        0.989325616       -0.131306899
                      0.654292032       -0.100204134      0.00121528013      0.00562430398        0.326217305      -0.0263944585      0.00162802565       0.0055788051
                    0.00286346144       0.0112721771        0.989325616       -0.131306899      0.00162802565       0.0055788051     -0.00265538074       -0.061509879

         610000000       0.312384525       -0.167743696      0.00240066327        0.012267976        0.652019858       -0.108862094      0.00338461898       0.0121875629
                    0.00240066327        0.012267976      -0.0162090147      -0.0651172991      0.00143332609      0.00607905231        0.987340888       -0.142900981
                      0.652019858       -0.108862094      0.00143332609      0.00607905231        0.324915421      -0.0285567897      0.00192304354      0.00602007611
                    0.00338461898       0.0121875629        0.987340888       -0.142900981      0.00192304354      0.00602007611     -0.00315048068      -0.0669886792

         660000000       0.308873168       -0.181021678      0.00279307467       0.0131825559        0.649566142       -0.117447712      0.00394577889       0.0130802389
                    0.00279307467       0.0131825559      -0.0189424939      -0.0700960199      0.00166700448      0.00652214888        0.985188831       -0.154461907
                      0.649566142       -0.117447712      0.00166700448      0.00652214888        0.323511194      -0.0306705263       0.0022402493       0.0064472185
                    0.00394577889       0.0130802389        0.985188831       -0.154461907       0.0022402493       0.0064472185     -0.00368782377      -0.0724641514

         710000000       0.305105685       -0.194191257      0.00321088887       0.0140765951        0.646933879       -0.125955747       0.0045458677       0.0139485993
                    0.00321088887       0.0140765951      -0.0218805941      -0.0749908119      0.00191561494      0.00695284081        0.982870006       -0.165987003
                      0.646933879       -0.125955747      0.00191561494      0.00695284081        0.322006737      -0.0327321768      0.00257892931      0.00685925201
                     0.0045458677       0.0139485993        0.982870006       -0.165987003      0.00257892931      0.00685925201     -0.00426739877      -0.0779360399

         760000000       0.301086503       -0.207245318      0.00365292542       0.0149488881        0.644126257        -0.13438111      0.00518374386       0.0147910951
                    0.00365292542       0.0149488881      -0.0250209293      -0.0797956247      0.00217841653      0.00737041985        0.980385016       -0.177473607
                      0.644126257        -0.13438111      0.00217841653      0.00737041985        0.320404295      -0.0347383594      0.00293832547      0.00725523601
                    0.00518374386       0.0147910951        0.980385016       -0.177473607      0.00293832547      0.00725523601     -0.00488919607      -0.0834040921

         810000000       0.296820302       -0.220176967      0.00411794174       0.0157983002        0.641146645       -0.142718873      0.00585820112       0.0156062375
                    0.00411794174       0.0157983002      -0.0283609483      -0.0845044738      0.00245463071      0.00777422463        0.977734507       -0.188919067
                      0.641146645       -0.142718873      0.00245463071      0.00777422463        0.318706242      -0.0366858077      0.00331763766      0.00763427155
                    0.00585820112       0.0156062375        0.977734507       -0.188919067      0.00331763766      0.00763427155     -0.00555320817      -0.0888680586

         860000000          0.292312       -0.232979547      0.00460463773       0.0166237716        0.637998586       -0.150964278      0.00656797221       0.0163926007
                    0.00460463773       0.0166237716      -0.0318979368      -0.0891114456      0.00274344451      0.00816364269        0.974919165        -0.20032074
                      0.637998586       -0.150964278      0.00274344451      0.00816364269        0.316915073      -0.0385713762      0.00371602628      0.00799550341
                    0.00656797221       0.0163926007        0.974919165        -0.20032074      0.00371602628      0.00799550341     -0.00625943016      -0.0943276934

         910000000        0.28756674       -0.245646645      0.00511166053       0.0174243195        0.634685783       -0.159112743      0.00731173247       0.0171488246
                    0.00511166053       0.0174243195      -0.0356290197      -0.0936107011      0.00304401379      0.00853811223        0.971939718       -0.211675997
                      0.634685783       -0.159112743      0.00304401379      0.00853811223        0.315033396      -0.0403920452      0.00413261491      0.00833812183
                    0.00731173247       0.0171488246        0.971939718       -0.211675997      0.00413261491      0.00833812183     -0.00700786029      -0.0997827533

         960000000       0.282589878         -0.2581721      0.00563760941       0.0181990415        0.631212093       -0.167159867      0.00808810375        0.017873617
                    0.00563760941       0.0181990415      -0.0395511626      -0.0979964801      0.00335546657      0.00889712378        0.968796935        -0.22298222
                      0.631212093       -0.167159867      0.00335546657      0.00889712378        0.313063925      -0.0421449255      0.00456649305      0.00866136413
                    0.00808810375        0.017873617        0.968796935        -0.22298222      0.00456649305      0.00866136413     -0.00779850041       -0.105232998

         1.01e+009       0.277386964       -0.270550015      0.00618104082       0.0189471171        0.627581515       -0.175101438       0.0088956583        0.018565756
                    0.00618104082       0.0189471171      -0.0436611744       -0.102263106      0.00367690645      0.00924022142        0.965491625       -0.234236803
                      0.627581515       -0.175101438      0.00367690645      0.00924022142        0.311009472      -0.0438272619      0.00501671888      0.00896451613
                     0.0088956583        0.018565756        0.965491625       -0.234236803      0.00501671888      0.00896451613     -0.00863135652        -0.11067819

         1.06e+009       0.271963731       -0.282774756      0.00674047349       0.0196678099        0.623798176       -0.182933437      0.00973292282       0.0192240915
                    0.00674047349       0.0196678099      -0.0479557092       -0.106404988      0.00400741609      0.00956700397        0.962024637       -0.245437153
                      0.623798176       -0.182933437      0.00400741609      0.00956700397        0.308872941      -0.0454364372      0.00548232216      0.00924691344
                    0.00973292282       0.0192240915        0.962024637       -0.245437153      0.00548232216      0.00924691344     -0.00950643927       -0.116118094

         1.11e+009       0.266326078       -0.294840967      0.00731439358       0.0203604693        0.619866325       -0.190652042       0.0105983825       0.0198475474
                    0.00731439358       0.0203604693      -0.0524312689       -0.110416628       0.0043460607       0.0098771258        0.958396859        -0.25658069
                      0.619866325       -0.190652042       0.0043460607       0.0098771258        0.306657319      -0.0469699748      0.00596230706      0.00950794241
                     0.0105983825       0.0198475474        0.958396859        -0.25658069      0.00596230706      0.00950794241      -0.0104237644       -0.121552477

         1.16e+009       0.260480052       -0.306743567      0.00790125994       0.0210245315         0.61579032        -0.19825363       0.0114904851       0.0204351225
                    0.00790125994       0.0210245315      -0.0570842054       -0.114292622      0.00469189159       0.0101702975        0.954609219       -0.267664846
                       0.61579032        -0.19825363      0.00469189159       0.0101702975        0.304365667      -0.0484255416      0.00645565513      0.00974704113
                     0.0114904851       0.0204351225        0.954609219       -0.267664846      0.00645565513      0.00974704113      -0.0113833532       -0.126981107

         1.21e+009        0.25443184       -0.318477758       0.0084995093       0.0216595203        0.611574616       -0.205734782       0.0124076451       0.0209858915
                     0.0084995093       0.0216595203      -0.0619107232       -0.118027664      0.00504394966       0.0104462861        0.950662686       -0.278687068
                      0.611574616       -0.205734782      0.00504394966       0.0104462861        0.302001114      -0.0498009493      0.00696132819      0.00996370002
                     0.0124076451       0.0209858915        0.950662686       -0.278687068      0.00696132819      0.00996370002      -0.0123852331       -0.132403754

         1.26e+009       0.248187746       -0.330039027      0.00910756152       0.0222650478        0.607223754       -0.213092286       0.0133482479       0.0214990063
                    0.00910756152       0.0222650478      -0.0669068817       -0.121616552      0.00540126895       0.0107049155        0.946558263       -0.289644816
                      0.607223754       -0.213092286      0.00540126895       0.0107049155        0.299566848      -0.0510941566      0.00747827131       0.0101574624
                     0.0133482479       0.0214990063        0.946558263       -0.289644816      0.00747827131       0.0101574624      -0.0134294379       -0.137820189

         1.31e+009       0.241754181       -0.341423149      0.00972382476       0.0228408147        0.602742353       -0.220323134        0.014310654       0.0219736967
                    0.00972382476       0.0228408147      -0.0720685984       -0.125054189      0.00576288011       0.0109460662        0.942296998       -0.300535565
                      0.602742353       -0.220323134      0.00576288011       0.0109460662        0.297066109      -0.0523032697      0.00800541566       0.0103279247
                      0.014310654       0.0219736967        0.942296998       -0.300535565      0.00800541566       0.0103279247      -0.0145160082       -0.143230181

         1.36e+009       0.235137644       -0.352626186       0.0103467007       0.0233866098        0.598135096       -0.227424527       0.0152932027       0.0224092699
                     0.0103467007       0.0233866098      -0.0773916508       -0.128335588      0.00612781382       0.0111696751        0.937879971       -0.311356801
                      0.598135096       -0.227424527      0.00612781382       0.0111696751        0.294502179      -0.0534265432      0.00854168146        0.010474737
                     0.0152932027       0.0224092699        0.937879971       -0.311356801      0.00854168146        0.010474737      -0.0156449917       -0.148633502

         1.41e+009       0.228344709       -0.363644488       0.0109745894       0.0239023102        0.593406719       -0.234393874       0.0162942168       0.0228051117
                     0.0109745894       0.0239023102      -0.0828716797       -0.131455877      0.00649510418       0.0113757349        0.933308306       -0.322106029
                      0.593406719       -0.234393874      0.00649510418       0.0113757349        0.291878378      -0.0544623797      0.00908598086       0.0105976023
                     0.0162942168       0.0228051117        0.933308306       -0.322106029      0.00908598086       0.0105976023      -0.0168164438       -0.154029921

