#        HZ        S              RI          R       50
! freq                reS11          imS11           
  2.00000000000E+04 -0.972149        0.0900288    
  3.00000000000E+04 -0.95744         0.127817     
  4.00000000000E+04 -0.941139        0.162427     
  5.00000000000E+04 -0.92343         0.195577     
  6.00000000000E+04 -0.904016        0.223367     
  7.00000000000E+04 -0.883769        0.249297     
  8.00000000000E+04 -0.863219        0.272448     
  9.00000000000E+04 -0.842369        0.293275     
  1.00000000000E+05 -0.821716        0.311693     
  2.00000000000E+05 -0.639289        0.420201     
  3.00000000000E+05 -0.503016        0.463623     
  4.00000000000E+05 -0.39854         0.482735     
  5.00000000000E+05 -0.315322        0.49101      
  6.00000000000E+05 -0.246924        0.493389     
  7.00000000000E+05 -0.189039        0.492381     
  8.00000000000E+05 -0.13951         0.489459     
  9.00000000000E+05 -0.0960235       0.485134     
  1.00000000000E+06 -0.0573281       0.479917     
  2.00000000000E+06  0.177625        0.410534     
  3.00000000000E+06  0.287489        0.344329     
  4.00000000000E+06  0.34805         0.291225     
  5.00000000000E+06  0.385174        0.249458     
  6.00000000000E+06  0.408649        0.215936     
  7.00000000000E+06  0.424776        0.188919     
  8.00000000000E+06  0.435333        0.166722     
  9.00000000000E+06  0.443472        0.148305     
  1.00000000000E+07  0.44466         0.131678     
  2.00000000000E+07  0.463308        0.0485431    
  3.00000000000E+07  0.46334         0.013223     
  4.00000000000E+07  0.46263        -0.00808678   
  5.00000000000E+07  0.461178       -0.0243174    
  6.00000000000E+07  0.459986       -0.0381349    
  7.00000000000E+07  0.459658       -0.0507834    
  8.00000000000E+07  0.458543       -0.0627658    
  9.00000000000E+07  0.457438       -0.0742414    
  1.00000000000E+08  0.455952       -0.0855241    
  2.00000000000E+08  0.425559       -0.188105     
  3.00000000000E+08  0.36946        -0.277599     
  4.00000000000E+08  0.287113       -0.348904     
  5.00000000000E+08  0.183752       -0.394383     
  6.00000000000E+08  0.069199       -0.408314     
  7.00000000000E+08 -0.0465156      -0.386465     
  8.00000000000E+08 -0.153645       -0.325781     
  9.00000000000E+08 -0.230457       -0.218609     
  1.00000000000E+09 -0.263218       -0.0831334    
