! Created Mon Nov 05 15:53:19 2012
# hz S ma R 50
! 2 Port Network Data from SP1.SP block
! freq  magS11  angS11  magS21  angS21  magS12  angS12  magS22  angS22  
!     
             2e+09       0.213612187         175.203893        0.677883618        -77.0945032       0.0530174218        -60.7757776        0.734812377        -116.086674
           2.1e+09       0.214172883         174.150144        0.668372798        -80.3870027       0.0527682692         -63.216379        0.742741932        -118.411501
           2.2e+09       0.212763792         173.239215         0.65807941        -83.4965271       0.0520056801        -66.1546779        0.750399934        -120.554767
           2.3e+09       0.212330148         172.228334        0.649057506        -86.7046108       0.0515617222        -68.8773273        0.757591469        -122.568626
           2.4e+09       0.210614336         171.048089        0.639864207        -89.8960989       0.0508568713        -71.7944813         0.76410474        -124.428568
           2.5e+09       0.209274346         170.520349        0.631688491        -93.0775141       0.0503826391        -73.7328705        0.770155824        -126.188362
           2.6e+09         0.2068598         169.233478        0.623774914        -96.3626686       0.0495187536        -76.7738082        0.775924986        -127.819934
           2.7e+09       0.205108553         168.466661        0.616023462        -99.5970084       0.0488801207        -78.8415674        0.781425566        -129.349039
           2.8e+09       0.203477389         167.312239        0.608652534        -103.014993        0.048800391        -81.5630498        0.786966777        -130.771595
           2.9e+09       0.199939964         166.281914        0.600846208        -106.444179       0.0481663713        -84.5513461        0.792018329        -132.085844
             3e+09         0.1965296         165.096907        0.593187947        -109.932127        0.047691073        -87.1470518        0.797456046        -133.322268
           3.1e+09       0.192982537          164.06015        0.585285215         -113.48202       0.0472031817         -90.018439        0.802592452        -134.469678
           3.2e+09       0.188293983         162.939999        0.577529918        -117.138851       0.0466438133        -92.9438067        0.807719781        -135.552315
           3.3e+09        0.18340574         161.539903        0.569178731        -120.839444       0.0463528137        -95.8101414        0.813365574        -136.559886
           3.4e+09       0.177973124         160.880178        0.559910551        -124.556124       0.0456469614        -99.0759065        0.819378573        -137.509245
           3.5e+09       0.171967555         159.666995        0.550452119        -128.449628       0.0450713097        -101.845995        0.825400606        -138.410796
           3.6e+09       0.164097454         159.013022        0.539765078        -132.331796       0.0444430953        -105.414069        0.831899298        -139.269968
           3.7e+09       0.156760388         158.259463        0.528808245        -136.392395       0.0437410175        -108.962356        0.838867874        -140.103176
           3.8e+09       0.149620126         158.067957        0.517146311        -140.364654       0.0429633058        -112.077121        0.845966001        -140.920077
           3.9e+09       0.141783356         158.128497        0.504445031        -144.380247       0.0420133247        -115.453625        0.853493577        -141.721249
             4e+09        0.13408519         158.598122         0.49108456        -148.447809       0.0410533598        -118.958092        0.861366274        -142.519874
           4.1e+09       0.126432431         159.586424        0.477104778        -152.581139       0.0401567661        -122.244158         0.86933142        -143.320477
           4.2e+09       0.117889247          161.19701        0.461684943        -156.663169       0.0388347925        -126.120328         0.87761434        -144.129306
           4.3e+09       0.111564842         163.443906        0.446219975        -160.690852       0.0376848613        -129.280471        0.885814962        -144.949509
           4.4e+09       0.105868441         166.273228        0.429635909         -164.72754       0.0361194186        -132.717394        0.894126027         -145.78037
           4.5e+09       0.100331504         170.055726        0.412399445          -168.6961       0.0349995474        -136.064546        0.902316186        -146.622785
           4.6e+09      0.0961835198         174.078386        0.395248608        -172.642027       0.0337681121        -139.105101        0.910214137        -147.475997
           4.7e+09      0.0939769177           178.7256        0.378067495        -176.397512       0.0324092055        -142.287536         0.91771906        -148.345288
           4.8e+09      0.0928123186        -176.278478        0.360382327         179.898909       0.0311181974        -145.488711        0.925023675        -149.218615
           4.9e+09       0.093829085        -171.167604        0.343153212         176.246167       0.0296734936         -148.48205        0.931805846        -150.088794
             5e+09      0.0951442817        -167.381824        0.325942433         172.719313       0.0282627091        -151.229762         0.93812988        -150.964823
           5.1e+09      0.0975334974         -162.82305        0.309160531         169.330698       0.0270600986        -154.088606        0.944017352        -151.835409
           5.2e+09       0.102263183        -159.248942        0.292706889         166.165191       0.0256634336        -156.798619        0.949395307        -152.701931
           5.3e+09       0.107239336        -156.197013        0.277028703         163.097564       0.0244104953        -159.297552        0.954285752        -153.557016
           5.4e+09       0.111813333        -153.583285        0.261906866         160.186935       0.0232539398        -161.593211        0.958712377         -154.39616
           5.5e+09       0.117423395        -152.025041        0.247690309         157.384596       0.0220328222        -163.774425        0.962628217        -155.218414
           5.6e+09       0.124104128        -150.729046        0.234056377         154.675679       0.0208598329        -165.836069        0.966183628        -156.023405
           5.7e+09       0.128892176        -149.440867        0.221028241         152.148996       0.0197846006        -167.621236        0.969349715        -156.810278
           5.8e+09       0.133719258        -148.834298        0.208838962         149.712313       0.0188505628        -169.353225        0.972200491        -157.576738
           5.9e+09       0.138840394        -148.602568        0.197576793         147.400584       0.0178439935        -170.973775        0.974679279          -158.3221
             6e+09       0.143576106        -147.993425        0.186721158         145.197308       0.0169664075        -172.679703        0.976954169         -159.04909
           6.1e+09       0.149266697        -147.725337        0.176894792         143.099068       0.0161479922         -174.24574        0.978956884        -159.751815
           6.2e+09       0.153801681        -147.725396        0.167438989          140.98675       0.0153343834        -175.643164        0.980733062        -160.438032
           6.3e+09       0.157726042        -146.988543        0.158420869          139.14306       0.0147799403        -177.101229        0.982315454        -161.108257
           6.4e+09       0.162770279        -147.737028         0.15011881         137.291089       0.0138661967        -178.447374        0.983716038        -161.758032
           6.5e+09       0.166726803        -147.577755        0.142353166         135.503402       0.0133025148        -179.596972        0.984954492        -162.390144
           6.6e+09        0.17040775        -147.593057        0.135098898         133.821981       0.0126566802         179.204255        0.986042834        -163.004621
           6.7e+09       0.173883638        -147.942595        0.128405508         132.222084       0.0120638561         178.295024        0.987009781        -163.601863
           6.8e+09       0.177952978        -147.932452        0.122107557         130.614905       0.0115780344         177.378808        0.987878237        -164.182832
           6.9e+09       0.181130589        -148.052473        0.116224157         129.083865       0.0110498931         176.290639        0.988657095        -164.748165
             7e+09       0.184608133         -148.37918        0.110635295         127.596083       0.0105597647         175.158566        0.989373853        -165.300143
           7.1e+09       0.187202812        -148.674978        0.105427648         126.091495       0.0101259744         174.739422        0.990027366        -165.838731
           7.2e+09       0.191012422        -148.992821        0.100529143         124.691711      0.00963372388         173.466783         0.99061582           -166.365
           7.3e+09        0.19329797        -149.010444        0.095911804         123.341703      0.00930738922         172.841092         0.99112584        -166.878803
           7.4e+09       0.194992057        -149.470117       0.0915746223         121.955534      0.00889399112         172.087122        0.991600724        -167.379913
           7.5e+09       0.199322221        -149.502324       0.0875125604         120.709696      0.00857869803         171.072465        0.992039605        -167.870894
           7.6e+09       0.201011842        -149.577182       0.0835867855         119.368057      0.00823921837         170.320916        0.992458517        -168.351578
           7.7e+09       0.202114585        -149.930136       0.0798393193         118.061129      0.00790585254          169.69383        0.992846638        -168.823987
           7.8e+09       0.207292875        -149.963936       0.0764378884         116.880213      0.00759763605         168.580985        0.993175672        -169.287044
           7.9e+09       0.208869005        -150.345414       0.0731205159         115.662761      0.00725432643         168.356292        0.993472813        -169.740666
             8e+09        0.21051669        -150.713013       0.0699615049         114.510058      0.00702910696         167.661059        0.993744044        -170.185765
           8.1e+09       0.213763277        -150.843852       0.0670558596         113.391551      0.00672539267         166.942549        0.993969782        -170.622368
           8.2e+09       0.216442324        -151.123374       0.0642585628         112.334174      0.00650994083         166.481431        0.994184187        -171.051136
           8.3e+09       0.217039322        -151.280782       0.0616020064          111.21176      0.00628009293         165.968482        0.994381391         -171.47209
           8.4e+09        0.21970511        -151.507423       0.0591042605          110.17214       0.0060352911         165.459554          0.9945625        -171.885672
           8.5e+09       0.222527397        -151.889145       0.0567500623         109.141958      0.00584623285         164.790218        0.994721192        -172.291744
           8.6e+09       0.224124541        -151.818399       0.0544913711         108.150161      0.00564849524         164.313216        0.994869639        -172.690887
           8.7e+09       0.226063011        -151.838757       0.0523532868          107.16294      0.00548028448         163.680765        0.995003982        -173.084144
           8.8e+09       0.228329607        -152.670483       0.0503454747         106.150716      0.00523006034         163.393315        0.995125829        -173.470934
           8.9e+09       0.229895132         -152.64139       0.0483946026         105.178588      0.00508756216         162.933784        0.995244095        -173.852273
             9e+09       0.231566775        -152.532634       0.0465361692         104.224796      0.00493188098         162.267467        0.995352165        -174.227593
           9.1e+09       0.233830208        -153.065861       0.0447549967         103.290194      0.00475321083         161.963717        0.995447408        -174.597083
           9.2e+09        0.23600256        -153.330313       0.0431115245          102.38023       0.0046030095         161.350242        0.995534549        -174.961495
           9.3e+09       0.236779805        -152.951184       0.0414821521         101.504324      0.00444747522         161.142085        0.995616814        -175.321142
           9.4e+09       0.239265937        -153.743167       0.0399717258         100.596564      0.00430964236         160.716855        0.995689132         -175.67609
           9.5e+09       0.241270213          -153.8131       0.0385131364         99.7137247      0.00417447446         160.478249        0.995758612        -176.026302
           9.6e+09       0.243730422         -153.85573       0.0370947326         98.9013405      0.00404073881          159.95086        0.995822258        -176.372023
           9.7e+09       0.243273364        -154.319793       0.0357437253         98.1286251      0.00392459631         160.091157        0.995876297        -176.713571
           9.8e+09         0.2459048        -154.282538       0.0345001838         97.3809681      0.00382879123         159.764463        0.995926576        -177.050933
           9.9e+09       0.247904433        -154.471562       0.0333486387         96.6220281      0.00369977112         159.177007        0.995963366        -177.384381
             1e+10       0.249232255        -154.727426       0.0321977123         95.7729248      0.00360291367          159.07839        0.995994018        -177.713437
          1.01e+10       0.250121239        -154.847656       0.0311217499          95.081359      0.00352239218         158.562496        0.996014601        -178.038717
          1.02e+10       0.253503572         -155.34142       0.0301003279         94.2125485      0.00339659793         158.123691        0.996038952        -178.359985
          1.03e+10       0.254721581        -155.484252        0.029072505         93.4130548      0.00333046543         158.050865        0.996061648        -178.677663
          1.04e+10       0.253710747        -155.761299       0.0280972248         92.6674688      0.00322845406         157.776823        0.996081023        -178.991889
          1.05e+10       0.258427922        -155.945156        0.027151152          91.872714      0.00314477677         157.006543        0.996102431        -179.302808
          1.06e+10       0.259256125        -156.164269       0.0262426034         91.1362533      0.00304285926         156.530505        0.996119422        -179.610603
          1.07e+10        0.25904413          -155.7973       0.0253397552         90.5395362      0.00300514812         156.497445        0.996137833        -179.915158
          1.08e+10       0.263327583         -156.37857       0.0245184946         89.7255616       0.0028787951         155.805631        0.996155185         179.783282
          1.09e+10        0.26341392        -156.623052       0.0236817822         88.9620762      0.00279199423         155.765807        0.996169179         179.484524
           1.1e+10        0.26491114        -156.442656       0.0228695091         88.3500554      0.00273559757          155.27972        0.996181677         179.188667
          1.11e+10       0.266545562        -156.857137       0.0221141448         87.5808243      0.00263377983         154.891792        0.996196079         178.895579
          1.12e+10       0.268942491        -157.093086       0.0213440052         86.8892626      0.00255841619         154.711547        0.996207649         178.604997
          1.13e+10       0.270122212        -157.062762        0.020611192          86.241512      0.00250560471         154.103922        0.996218751         178.317133
          1.14e+10       0.273479621        -157.255004        0.019895572         85.5228922      0.00240995841         153.858306        0.996230548         178.031809
          1.15e+10       0.272927551        -157.684309       0.0191682752         84.8506803      0.00233921551         154.098835        0.996240298         177.748796
          1.16e+10       0.275208765        -157.712301       0.0185191126          84.132748      0.00225961372         153.337044        0.996248137         177.468211
          1.17e+10       0.277775125        -157.836246       0.0178461545         83.5003112        0.002202208         153.241147        0.996256296         177.189807
          1.18e+10        0.27694475        -158.518195       0.0172065763         82.8402437      0.00212563262          153.48563        0.996262456         176.913574
          1.19e+10       0.280054707        -158.326583       0.0165955853         82.2263639      0.00205532506         152.824663        0.996267839         176.639536
           1.2e+10       0.283738072        -158.215298       0.0159968959         81.6290612      0.00200294341         152.094142        0.996273715         176.367519
          1.21e+10       0.280939988        -158.782171       0.0154090118         80.9505912      0.00193371515         152.589044        0.996277819          176.09752
          1.22e+10       0.286892646        -158.990843       0.0148421236         80.3006811      0.00187107076         151.438847        0.996280599         175.829553
          1.23e+10       0.288200968        -158.996797       0.0142980398         79.5463615      0.00179849907         151.076437        0.996283562         175.563373
          1.24e+10       0.286340826        -159.412158       0.0137250246         78.9315313      0.00175593435         151.470573        0.996286489         175.298879
          1.25e+10       0.289480127        -159.621762       0.0132319813         78.2200692      0.00167864401         150.779801        0.996289392         175.036167
          1.26e+10       0.293296869        -159.963802       0.0127014723         77.5481418       0.0016192803         150.570394        0.996293209          174.77515
          1.27e+10       0.292767652        -159.911661       0.0122090598         76.9309281      0.00157716284         150.340763        0.996296756         174.515558
          1.28e+10       0.294418156        -160.376001       0.0117146321         76.1536321      0.00150153813         149.917205        0.996297473         174.257658
          1.29e+10       0.296885841        -160.592691       0.0112273204         75.4967689      0.00143692029         149.877447        0.996298075         174.001244
           1.3e+10       0.298304197        -160.668239       0.0107325472         74.7591388      0.00139420614         149.329353        0.996298489         173.746274
          1.31e+10       0.298320435        -160.883047       0.0102432747         74.0881738      0.00133527243         149.108733        0.996297682         173.492759
          1.32e+10       0.302293117        -161.207397      0.00974829608         73.2567711       0.0012673995         148.584506        0.996297167         173.240666
          1.33e+10       0.301803713         -161.68246      0.00925080099         72.5754856      0.00120771452         148.551206        0.996296832         172.989874
          1.34e+10       0.304328431        -161.394988      0.00874814267         71.9212921      0.00115985283         147.837455          0.9962964         172.740326
          1.35e+10       0.304369271        -162.203441      0.00821355026         71.0382568      0.00107927581         148.930038        0.996295709         172.492014
