! Created Wed May 30 18:34:37 2007
!Fourport data with invalid last line. Frequency is lower than previous line.
# hz S ri R 50
! 4 Port Network Data from SP1.SP block
! freq  reS11  imS11  reS12  imS12  reS13  imS13  reS14  imS14  
!       reS21  imS21  reS22  imS22  reS23  imS23  reS24  imS24  
!       reS31  imS31  reS32  imS32  reS33  imS33  reS34  imS34  
!       reS41  imS41  reS42  imS42  reS43  imS43  reS44  imS44  
!     
          10000000       0.333327616     -0.00279251517    6.68933338e-007     0.000209437215        0.666662668     -0.00181513409    9.32123152e-007     0.000209436871
                  6.68933338e-007     0.000209437215   -4.40018673e-006     -0.00109954876    4.00263153e-007     0.000104718356        0.999996587     -0.00235619084
                      0.666662668     -0.00181513409    4.00263153e-007     0.000104718356        0.333331027    -0.000488686576    5.31857899e-007     0.000104718101
                  9.32123152e-007     0.000209436871        0.999996587     -0.00235619084    5.31857899e-007     0.000104718101   -8.47140904e-007     -0.00109955705

          60000000        0.33312755      -0.0167526478    2.40733916e-005      0.00125614146        0.666522724      -0.0108890554    3.35486819e-005      0.00125606702
                  2.40733916e-005      0.00125614146    -0.000158391728     -0.00659547323     1.4404262e-005     0.000628016425        0.999877127      -0.0141363783
                      0.666522724      -0.0108890554     1.4404262e-005     0.000628016425        0.333250313     -0.00293094058    1.91416994e-005     0.000627961347
                  3.35486819e-005      0.00125606702        0.999877127      -0.0141363783    1.91416994e-005     0.000627961347   -3.04968952e-005     -0.00659726356

         110000000       0.332641917       -0.030702315    8.08463833e-005      0.00230078245        0.666183036      -0.0199554841     0.000112697607      0.00230032347
                  8.08463833e-005      0.00230078245    -0.000532249824      -0.0120836019    4.83718143e-005      0.00115005691        0.999587042      -0.0259132797
                      0.666183036      -0.0199554841    4.83718143e-005      0.00115005691        0.333054416     -0.00536814509    6.42950793e-005      0.00114971736
                   0.000112697607      0.00230032347        0.999587042      -0.0259132797    6.42950793e-005      0.00114971736    -0.000102502012      -0.0120946326

         160000000       0.331871324      -0.0446328185     0.000170822152       0.0033416482         0.66564404       -0.029008193     0.000238222306      0.00334023426
                   0.000170822152       0.0033416482     -0.00112567116      -0.0175574443     0.000102197703       0.0016697967        0.999126408      -0.0376841581
                       0.66564404       -0.029008193     0.000102197703       0.0016697967        0.332743645     -0.00779610398     0.000135887268      0.00166875104
                   0.000238222306      0.00334023426        0.999126408      -0.0376841581     0.000135887268      0.00166875104    -0.000216858949      -0.0175913835

         210000000        0.33081673      -0.0585355002     0.000293738208      0.00437703964        0.664906426      -0.0380409837     0.000409874669      0.00437383815
                   0.000293738208      0.00437703964      -0.0019381743      -0.0230105206     0.000175715351      0.00218620131        0.998495348      -0.0494462779
                      0.664906426      -0.0380409837     0.000175715351      0.00218620131        0.332318487      -0.0102106418     0.000233752356      0.00218383479
                   0.000409874669      0.00437383815        0.998495348      -0.0494462779     0.000233752356      0.00218383479    -0.000373562179      -0.0230872364

         260000000       0.329479445      -0.0724017605      0.00044923637      0.00540527647        0.663971138      -0.0470476999     0.000627315876      0.00539918949
                    0.00044923637      0.00540527647     -0.00296910002      -0.0284363665     0.000268697536      0.00269824872        0.997694027      -0.0611969068
                      0.663971138      -0.0470476999     0.000268697536      0.00269824872        0.331779608      -0.0126076133     0.000357663827      0.00269375185
                   0.000627315876      0.00539918949        0.997694027      -0.0611969068     0.000357663827      0.00269375185    -0.000572604317      -0.0285819125

         310000000       0.327861128      -0.0862230756     0.000636864186      0.00642470285         0.66283937      -0.0560222399     0.000890117494      0.00641436296
                   0.000636864186      0.00642470285     -0.00421761189      -0.0338285381     0.000380857378      0.00320493313        0.996722658      -0.0729333157
                       0.66283937      -0.0560222399     0.000380857378      0.00320493313         0.33112785      -0.0149829122     0.000507335349      0.00319729966
                   0.000890117494      0.00641436296        0.996722658      -0.0729333157     0.000507335349      0.00319729966    -0.000813976302      -0.0340751345
         300000000       0.325963777      -0.0999910158     0.000856076726      0.00743369302         0.66151256      -0.0649585695      0.00119776287      0.00741745821
                   0.000856076726      0.00743369302     -0.00568269691      -0.0391806164     0.000511849568      0.00370526875        0.995581498        -0.08465278
                       0.66151256      -0.0649585695     0.000511849568      0.00370526875        0.330364229      -0.0173324804     0.000682421755      0.00369329309
                    0.00119776287      0.00741745821        0.995581498        -0.08465278     0.000682421755      0.00369329309     -0.00109766761      -0.0395666273

