CITIFILE A.01.01
#NA VERSION HP8510C.07.10
NAME DATA
#NA REGISTER 4
VAR FREQ MAG 201
DATA S[1,1] RI
DATA S[2,1] RI
DATA S[1,2] RI
DATA S[2,2] RI
SEG_LIST_BEGIN
SEG 50000000 40050000000 201
SEG_LIST_END
COMMENT       YEAR MONTH DAY HOUR MINUTE SECONDS
CONSTANT TIME 1998   01   16  14    57    37.0
BEGIN
3.45730E-3,2.98619E-3
1.53541E-3,1.47934E-2
0.19245E-2,2.66304E-2
0.19283E-2,3.85093E-2
0.45375E-2,4.96330E-2
0.59757E-2,6.10961E-2
0.87509E-2,7.26699E-2
1.07193E-2,8.33854E-2
1.30882E-2,9.39979E-2
1.63612E-2,1.05133E-1
2.05192E-2,1.15024E-1
0.25421E-1,1.25793E-1
0.29464E-1,1.36337E-1
0.35926E-1,1.43516E-1
0.40977E-1,1.53068E-1
0.46630E-1,1.62719E-1
0.52154E-1,1.71798E-1
0.58052E-1,1.80618E-1
0.63705E-1,1.89048E-1
0.70777E-1,1.98326E-1
0.77072E-1,2.05802E-1
0.84167E-1,2.14477E-1
0.90904E-1,2.22122E-1
0.97374E-1,2.28736E-1
1.02767E-1,2.36259E-1
1.09382E-1,2.43171E-1
1.17569E-1,2.49725E-1
1.24816E-1,2.56439E-1
1.32659E-1,2.62146E-1
1.40243E-1,2.69363E-1
1.47811E-1,2.77160E-1
1.60598E-1,2.78747E-1
1.65588E-1,2.83905E-1
1.72103E-1,2.87277E-1
1.80770E-1,2.90496E-1
1.85882E-1,2.92663E-1
1.89788E-1,2.98919E-1
1.98669E-1,3.06747E-1
2.07702E-1,3.16696E-1
2.20291E-1,3.23211E-1
2.3349E-1,3.22326E-1
2.40188E-1,3.22692E-1
2.44461E-1,3.28414E-1
2.62039E-1,3.38790E-1
2.74566E-1,3.29193E-1
2.83111E-1,3.28750E-1
2.89917E-1,3.30474E-1
2.98706E-1,3.31878E-1
3.06518E-1,3.31756E-1
3.15795E-1,3.35250E-1
3.23394E-1,3.3638E-1
3.33297E-1,3.34259E-1
3.42620E-1,3.34030E-1
3.52645E-1,3.33099E-1
3.61389E-1,3.31054E-1
3.69018E-1,3.32107E-1
3.81576E-1,3.3078E-1
3.83850E-1,3.21228E-1
3.90777E-1,3.32504E-1
4.00497E-1,3.26522E-1
4.07409E-1,3.24279E-1
4.13482E-1,3.22631E-1
4.20150E-1,3.20953E-1
4.25994E-1,3.21228E-1
4.34539E-1,3.20526E-1
4.40002E-1,3.18985E-1
4.46594E-1,3.22448E-1
4.53887E-1,3.23120E-1
4.62722E-1,3.23165E-1
4.72946E-1,3.21670E-1
4.82391E-1,3.19778E-1
4.89929E-1,3.13797E-1
5.00701E-1,3.11096E-1
5.08422E-1,3.04809E-1
5.17364E-1,2.99408E-1
5.24231E-1,2.92327E-1
5.28900E-1,2.84698E-1
5.31005E-1,2.78961E-1
5.31921E-1,2.73925E-1
5.34729E-1,2.67578E-1
5.36651E-1,2.64617E-1
5.34729E-1,2.61535E-1
5.37139E-1,2.6828E-1
5.50079E-1,2.68188E-1
5.57128E-1,2.62268E-1
5.65155E-1,2.58087E-1
5.75042E-1,2.50091E-1
5.79040E-1,2.40722E-1
5.79864E-1,2.34893E-1
5.83526E-1,2.27508E-1
5.85510E-1,2.19238E-1
5.88287E-1,2.12005E-1
5.88745E-1,2.06024E-1
5.88562E-1,1.98883E-1
5.92071E-1,1.93969E-1
5.9021E-1,1.89727E-1
5.89080E-1,1.88537E-1
5.93048E-1,1.90338E-1
5.98815E-1,1.88537E-1
6.05987E-1,1.83807E-1
6.12945E-1,1.75781E-1
6.16363E-1,1.67022E-1
6.17919E-1,1.60827E-1
6.2146E-1,1.58905E-1
6.28601E-1,1.53778E-1
6.35559E-1,1.47888E-1
6.38488E-1,1.35833E-1
6.35467E-1,1.23901E-1
6.33148E-1,1.19995E-1
6.37542E-1,1.19598E-1
6.41540E-1,1.14685E-1
6.47979E-1,1.05499E-1
6.47796E-1,0.95184E-1
6.47369E-1,0.89141E-1
6.48407E-1,0.82916E-1
6.50543E-1,0.79376E-1
6.50177E-1,0.75866E-1
6.56036E-1,0.71746E-1
6.63299E-1,0.64605E-1
6.66015E-1,0.53497E-1
6.68060E-1,0.42663E-1
6.66351E-1,0.35553E-1
6.63421E-1,0.25634E-1
6.59301E-1,0.20599E-1
6.59393E-1,0.16815E-1
6.59973E-1,0.13580E-1
6.60217E-1,0.08148E-1
6.61010E-1,0.04303E-1
6.63085E-1,-0.00183E-1
6.66442E-1,-0.06530E-1
6.69586E-1,-0.16571E-1
6.71417E-1,-0.26825E-1
6.70410E-1,-0.34912E-1
6.69616E-1,-0.43670E-1
6.68121E-1,-0.51086E-1
6.69433E-1,-0.60394E-1
6.67114E-1,-0.68512E-1
6.62719E-1,-0.76934E-1
6.58569E-1,-0.85479E-1
6.54754E-1,-0.95855E-1
6.49902E-1,-1.00250E-1
6.46209E-1,-1.06109E-1
6.42700E-1,-1.08581E-1
6.40228E-1,-1.13830E-1
6.39984E-1,-1.17767E-1
6.39343E-1,-1.26709E-1
6.29730E-1,-1.37146E-1
6.24786E-1,-1.45080E-1
6.19415E-1,-1.50512E-1
6.14166E-1,-1.52038E-1
6.11206E-1,-1.56555E-1
6.07696E-1,-1.58477E-1
6.08673E-1,-1.60186E-1
6.06475E-1,-1.66137E-1
6.03363E-1,-1.68731E-1
6.01257E-1,-1.74285E-1
6.01165E-1,-1.77002E-1
6.02874E-1,-1.81121E-1
6.03851E-1,-1.88995E-1
6.06506E-1,-1.93786E-1
6.02813E-1,-2.06481E-1
5.99121E-1,-1.98150E-1
6.02325E-1,-2.21832E-1
5.93200E-1,-2.25067E-1
5.90271E-1,-2.35717E-1
5.84899E-1,-2.46246E-1
5.82397E-1,-2.50976E-1
5.70007E-1,-2.52166E-1
5.68939E-1,-2.54455E-1
5.67260E-1,-2.59521E-1
5.60058E-1,-2.63732E-1
5.60913E-1,-2.75665E-1
5.59265E-1,-2.81189E-1
5.43853E-1,-2.86560E-1
5.48828E-1,-2.96295E-1
5.50323E-1,-3.02551E-1
5.34729E-1,-3.17047E-1
5.37963E-1,-3.23089E-1
5.24414E-1,-3.2724E-1
5.25054E-1,-3.29986E-1
5.10986E-1,-3.31543E-1
5.06195E-1,-3.37982E-1
5.00915E-1,-3.32031E-1
4.96276E-1,-3.37631E-1
4.89456E-1,-3.32321E-1
4.65011E-1,-3.49090E-1
4.86648E-1,-3.52905E-1
4.83810E-1,-3.57543E-1
4.78576E-1,-3.63388E-1
4.66354E-1,-3.64242E-1
4.60098E-1,-3.71261E-1
4.54330E-1,-3.64593E-1
4.53155E-1,-3.66104E-1
4.42886E-1,-3.70269E-1
4.40292E-1,-3.78402E-1
4.31045E-1,-3.72924E-1
4.21875E-1,-3.70452E-1
4.20745E-1,-3.74633E-1
4.12094E-1,-3.71398E-1
4.05181E-1,-3.76052E-1
4.01062E-1,-3.71444E-1
END
BEGIN
9.94751E-1,-0.02807E-1
9.94323E-1,-0.21789E-1
9.93072E-1,-0.38543E-1
9.92187E-1,-0.55358E-1
9.89563E-1,-0.71319E-1
9.88220E-1,-0.88653E-1
9.85961E-1,-1.04034E-1
9.82971E-1,-1.20330E-1
9.80011E-1,-1.35833E-1
9.77417E-1,-1.52557E-1
9.72930E-1,-1.67388E-1
9.69024E-1,-1.83105E-1
9.64447E-1,-1.97692E-1
9.57000E-1,-2.13684E-1
9.52545E-1,-2.28118E-1
9.47265E-1,-2.43011E-1
9.41772E-1,-2.57965E-1
9.34600E-1,-2.72369E-1
9.28192E-1,-2.87597E-1
9.22302E-1,-3.01483E-1
9.14733E-1,-3.14636E-1
9.07104E-1,-3.28277E-1
9.00665E-1,-3.40148E-1
8.94561E-1,-3.53912E-1
8.85894E-1,-3.67614E-1
8.77685E-1,-3.80371E-1
8.69689E-1,-3.92761E-1
8.61724E-1,-4.06341E-1
8.52691E-1,-4.17907E-1
8.42681E-1,-4.28833E-1
8.35388E-1,-4.41467E-1
8.21624E-1,-4.51934E-1
8.13995E-1,-4.64752E-1
8.01513E-1,-4.75769E-1
7.88330E-1,-4.83184E-1
7.75482E-1,-4.83062E-1
7.71881E-1,-4.84100E-1
7.72003E-1,-4.95117E-1
7.68219E-1,-5.08544E-1
7.59307E-1,-5.24597E-1
7.44140E-1,-5.34057E-1
7.36114E-1,-5.39581E-1
7.30133E-1,-5.53405E-1
7.13928E-1,-5.66772E-1
7.00683E-1,-5.70282E-1
6.89514E-1,-5.77301E-1
6.78833E-1,-5.83374E-1
6.68579E-1,-5.89660E-1
6.59698E-1,-5.96954E-1
6.49536E-1,-6.03118E-1
6.40136E-1,-6.11022E-1
6.27380E-1,-6.17034E-1
6.15051E-1,-6.21887E-1
6.05316E-1,-6.27533E-1
5.89538E-1,-6.32904E-1
5.80963E-1,-6.36871E-1
5.66375E-1,-6.40869E-1
5.61828E-1,-6.41113E-1
5.50720E-1,-6.48834E-1
5.39276E-1,-6.53045E-1
5.28381E-1,-6.55090E-1
5.18524E-1,-6.60003E-1
5.08880E-1,-6.63238E-1
4.98168E-1,-6.66320E-1
4.88616E-1,-6.70105E-1
4.79187E-1,-6.73675E-1
4.69360E-1,-6.75842E-1
4.59625E-1,-6.80084E-1
4.50317E-1,-6.81304E-1
4.40429E-1,-6.84204E-1
4.30786E-1,-6.86401E-1
4.21356E-1,-6.87805E-1
4.13116E-1,-6.90094E-1
4.03991E-1,-6.93206E-1
3.95965E-1,-6.95709E-1
3.86840E-1,-6.97631E-1
3.78479E-1,-7.00988E-1
3.69232E-1,-7.03857E-1
3.59466E-1,-7.05139E-1
3.49243E-1,-7.08252E-1
3.40271E-1,-7.08252E-1
3.30596E-1,-7.06329E-1
3.24890E-1,-7.02545E-1
3.22906E-1,-7.06359E-1
3.12530E-1,-7.11761E-1
3.05297E-1,-7.12158E-1
2.96112E-1,-7.13928E-1
2.87597E-1,-7.14874E-1
2.80029E-1,-7.14599E-1
2.72460E-1,-7.16339E-1
2.64434E-1,-7.15362E-1
2.56652E-1,-7.15545E-1
2.49542E-1,-7.13531E-1
2.43133E-1,-7.13470E-1
2.35870E-1,-7.12158E-1
2.29187E-1,-7.09838E-1
2.26257E-1,-7.08190E-1
2.24121E-1,-7.11700E-1
2.18597E-1,-7.15301E-1
2.11792E-1,-7.14996E-1
2.06787E-1,-7.16766E-1
1.98455E-1,-7.18536E-1
1.91345E-1,-7.18627E-1
1.86462E-1,-7.17315E-1
1.81457E-1,-7.19360E-1
1.74072E-1,-7.23999E-1
1.64215E-1,-7.27417E-1
1.52893E-1,-7.26806E-1
1.46301E-1,-7.22473E-1
1.41815E-1,-7.21771E-1
1.37603E-1,-7.24884E-1
1.29486E-1,-7.28057E-1
1.19720E-1,-7.30865E-1
1.10992E-1,-7.31445E-1
1.00860E-1,-7.31384E-1
0.92468E-1,-7.31109E-1
0.84320E-1,-7.31201E-1
0.76843E-1,-7.30346E-1
0.69335E-1,-7.30590E-1
0.62286E-1,-7.29461E-1
0.54657E-1,-7.30041E-1
0.45227E-1,-7.30407E-1
0.37017E-1,-7.29156E-1
0.28900E-1,-7.27020E-1
0.22064E-1,-7.26440E-1
0.14709E-1,-7.25494E-1
0.08422E-1,-7.24487E-1
0.01922E-1,-7.22198E-1
-0.03234E-1,-7.21710E-1
-0.10131E-1,-7.21008E-1
-0.16693E-1,-7.20459E-1
-0.21484E-1,-7.19757E-1
-0.27740E-1,-7.20306E-1
-0.35675E-1,-7.2052E-1
-0.41503E-1,-7.20123E-1
-0.4776E-1,-7.18933E-1
-0.55053E-1,-7.17041E-1
-0.60180E-1,-7.16613E-1
-0.65002E-1,-7.16613E-1
-0.72753E-1,-7.13623E-1
-0.79742E-1,-7.12066E-1
-0.84442E-1,-7.09320E-1
-0.89538E-1,-7.08099E-1
-0.94757E-1,-7.09716E-1
-1.03668E-1,-7.08801E-1
-1.10931E-1,-7.01293E-1
-1.14318E-1,-6.95983E-1
-1.14898E-1,-6.92230E-1
-1.16546E-1,-6.90490E-1
-1.19354E-1,-6.90856E-1
-1.22741E-1,-6.91345E-1
-1.26312E-1,-6.93328E-1
-1.31012E-1,-6.93115E-1
-1.36291E-1,-6.93328E-1
-1.3974E-1,-6.94305E-1
-1.44500E-1,-6.95404E-1
-1.50451E-1,-6.96441E-1
-1.59942E-1,-6.97845E-1
-1.67266E-1,-6.98150E-1
-1.75537E-1,-6.95007E-1
-1.83349E-1,-6.94122E-1
-1.87042E-1,-6.91284E-1
-1.94000E-1,-6.88324E-1
-1.98089E-1,-6.91803E-1
-2.04437E-1,-6.91009E-1
-2.10571E-1,-6.92230E-1
-2.19665E-1,-6.92993E-1
-2.27813E-1,-6.92993E-1
-2.36969E-1,-6.91711E-1
-2.42767E-1,-6.90307E-1
-2.51709E-1,-6.89209E-1
-2.61932E-1,-6.87561E-1
-2.67639E-1,-6.88873E-1
-2.79357E-1,-6.85668E-1
-2.83294E-1,-6.86096E-1
-2.92785E-1,-6.82525E-1
-3.00628E-1,-6.74926E-1
-3.05908E-1,-6.78772E-1
-3.12561E-1,-6.78161E-1
-3.18603E-1,-6.75354E-1
-3.2724E-1,-6.75842E-1
-3.38653E-1,-6.72454E-1
-3.41796E-1,-6.72241E-1
-3.50097E-1,-6.66900E-1
-3.48571E-1,-6.57959E-1
-3.86810E-1,-6.42517E-1
-3.73199E-1,-6.66076E-1
-3.81866E-1,-6.66473E-1
-3.89831E-1,-6.61651E-1
-3.96362E-1,-6.55456E-1
-4.01519E-1,-6.53259E-1
-4.09668E-1,-6.54327E-1
-4.13696E-1,-6.55609E-1
-4.2453E-1,-6.51184E-1
-4.35638E-1,-6.44744E-1
-4.41162E-1,-6.42669E-1
-4.45739E-1,-6.33789E-1
-4.48181E-1,-6.29730E-1
-4.60632E-1,-6.38092E-1
-4.68353E-1,-6.35406E-1
-4.71221E-1,-6.39648E-1
END
BEGIN
1.00506E0,-0.01281E-1
9.99481E-1,-0.20111E-1
9.97741E-1,-0.36773E-1
9.96856E-1,-0.52948E-1
9.95849E-1,-0.70587E-1
9.92675E-1,-0.86792E-1
9.91363E-1,-1.02264E-1
9.87701E-1,-1.19140E-1
9.84558E-1,-1.34124E-1
9.81658E-1,-1.50390E-1
9.77813E-1,-1.65985E-1
9.73815E-1,-1.81549E-1
9.69909E-1,-1.97418E-1
9.63653E-1,-2.12188E-1
9.57183E-1,-2.27722E-1
9.52087E-1,-2.42431E-1
9.45465E-1,-2.57415E-1
9.40490E-1,-2.70935E-1
9.33166E-1,-2.86163E-1
9.25994E-1,-3.00109E-1
9.19769E-1,-3.13446E-1
9.11254E-1,-3.27331E-1
9.04907E-1,-3.39874E-1
8.98620E-1,-3.52874E-1
8.90014E-1,-3.67736E-1
8.82446E-1,-3.79974E-1
8.74176E-1,-3.9328E-1
8.65722E-1,-4.05883E-1
8.57360E-1,-4.17968E-1
8.46832E-1,-4.28588E-1
8.39386E-1,-4.40673E-1
8.26507E-1,-4.51507E-1
8.18176E-1,-4.64691E-1
8.05542E-1,-4.75097E-1
7.91748E-1,-4.82269E-1
7.80273E-1,-4.83612E-1
7.75909E-1,-4.85382E-1
7.76855E-1,-4.95269E-1
7.73315E-1,-5.09368E-1
7.63641E-1,-5.25421E-1
7.4823E-1,-5.35247E-1
7.40905E-1,-5.39672E-1
7.34069E-1,-5.54657E-1
7.18078E-1,-5.66986E-1
7.05139E-1,-5.72052E-1
6.93542E-1,-5.78979E-1
6.82678E-1,-5.84259E-1
6.73217E-1,-5.90301E-1
6.62780E-1,-5.96923E-1
6.53686E-1,-6.03149E-1
6.43432E-1,-6.11084E-1
6.31622E-1,-6.17614E-1
6.18927E-1,-6.23321E-1
6.09497E-1,-6.29425E-1
5.93414E-1,-6.34246E-1
5.85357E-1,-6.37908E-1
5.71868E-1,-6.41967E-1
5.65643E-1,-6.42242E-1
5.54657E-1,-6.51001E-1
5.42663E-1,-6.53350E-1
5.32989E-1,-6.56066E-1
5.22735E-1,-6.61254E-1
5.12725E-1,-6.65466E-1
5.02594E-1,-6.67541E-1
4.91973E-1,-6.70684E-1
4.82910E-1,-6.75018E-1
4.72991E-1,-6.76818E-1
4.63745E-1,-6.80389E-1
4.53582E-1,-6.83197E-1
4.43054E-1,-6.86157E-1
4.33258E-1,-6.87927E-1
4.25170E-1,-6.89849E-1
4.16992E-1,-6.92840E-1
4.07135E-1,-6.95404E-1
3.99932E-1,-6.97296E-1
3.90136E-1,-7.00500E-1
3.80889E-1,-7.03491E-1
3.72009E-1,-7.06024E-1
3.61969E-1,-7.08190E-1
3.52294E-1,-7.09869E-1
3.42804E-1,-7.10876E-1
3.32336E-1,-7.09503E-1
3.27179E-1,-7.05535E-1
3.25988E-1,-7.08587E-1
3.15582E-1,-7.13012E-1
3.07739E-1,-7.14660E-1
2.98919E-1,-7.15667E-1
2.90252E-1,-7.16827E-1
2.82592E-1,-7.17071E-1
2.75024E-1,-7.18170E-1
2.67150E-1,-7.17285E-1
2.59246E-1,-7.17773E-1
2.53112E-1,-7.15301E-1
2.46398E-1,-7.14355E-1
2.39135E-1,-7.14477E-1
2.33398E-1,-7.12371E-1
2.30194E-1,-7.09198E-1
2.26776E-1,-7.13714E-1
2.22229E-1,-7.16613E-1
2.16369E-1,-7.17132E-1
2.09503E-1,-7.20153E-1
1.99218E-1,-7.21191E-1
1.92749E-1,-7.20764E-1
1.87652E-1,-7.20489E-1
1.84112E-1,-7.22778E-1
1.77154E-1,-7.26348E-1
1.65496E-1,-7.29766E-1
1.54632E-1,-7.27813E-1
1.49200E-1,-7.25433E-1
1.45477E-1,-7.25585E-1
1.40106E-1,-7.27813E-1
1.31103E-1,-7.32391E-1
1.22192E-1,-7.33764E-1
1.13098E-1,-7.33245E-1
1.02478E-1,-7.34069E-1
0.94879E-1,-7.33612E-1
0.87371E-1,-7.32543E-1
0.79071E-1,-7.33825E-1
0.71289E-1,-7.33001E-1
0.64636E-1,-7.32696E-1
0.56823E-1,-7.32482E-1
0.47210E-1,-7.31933E-1
0.38787E-1,-7.31597E-1
0.31616E-1,-7.30621E-1
0.24047E-1,-7.29064E-1
0.16967E-1,-7.27996E-1
0.10864E-1,-7.27081E-1
0.03753E-1,-7.26196E-1
-0.02319E-1,-7.23907E-1
-0.07171E-1,-7.23724E-1
-0.14373E-1,-7.24090E-1
-0.19439E-1,-7.22808E-1
-0.26245E-1,-7.24334E-1
-0.33447E-1,-7.23968E-1
-0.40069E-1,-7.22625E-1
-0.46264E-1,-7.23114E-1
-0.52490E-1,-7.21283E-1
-0.58929E-1,-7.20123E-1
-0.63568E-1,-7.18963E-1
-0.71319E-1,-7.17712E-1
-0.78308E-1,-7.15545E-1
-0.83679E-1,-7.13012E-1
-0.88958E-1,-7.13073E-1
-0.94177E-1,-7.11883E-1
-1.03057E-1,-7.13043E-1
-1.10229E-1,-7.04681E-1
-1.12976E-1,-6.98272E-1
-1.13708E-1,-6.96716E-1
-1.16180E-1,-6.93939E-1
-1.18194E-1,-6.93542E-1
-1.21551E-1,-6.94732E-1
-1.25640E-1,-6.95495E-1
-1.30889E-1,-6.97326E-1
-1.35620E-1,-6.97265E-1
-1.38702E-1,-6.99310E-1
-1.43981E-1,-6.99096E-1
-1.49993E-1,-7.00988E-1
-1.58294E-1,-7.02667E-1
-1.67541E-1,-7.00225E-1
-1.74469E-1,-6.98120E-1
-1.81579E-1,-6.98913E-1
-1.88293E-1,-6.96777E-1
-1.94671E-1,-6.94061E-1
-1.96929E-1,-6.94366E-1
-2.03521E-1,-6.93603E-1
-2.10540E-1,-6.95922E-1
-2.19970E-1,-6.97448E-1
-2.25891E-1,-6.95617E-1
-2.38830E-1,-6.95098E-1
-2.42279E-1,-6.92779E-1
-2.49542E-1,-6.92657E-1
-2.61261E-1,-6.91558E-1
-2.67059E-1,-6.92596E-1
-2.79388E-1,-6.89605E-1
-2.81646E-1,-6.90338E-1
-2.91503E-1,-6.87377E-1
-2.97607E-1,-6.79443E-1
-3.05603E-1,-6.83227E-1
-3.11157E-1,-6.80450E-1
-3.19427E-1,-6.80633E-1
-3.27056E-1,-6.79138E-1
-3.37585E-1,-6.77154E-1
-3.40484E-1,-6.75384E-1
-3.48297E-1,-6.70806E-1
-3.48419E-1,-6.60400E-1
-3.86779E-1,-6.45294E-1
-3.73046E-1,-6.71020E-1
-3.82537E-1,-6.69250E-1
-3.89007E-1,-6.64733E-1
-3.95904E-1,-6.62994E-1
-4.02587E-1,-6.58874E-1
-4.10064E-1,-6.58630E-1
-4.13085E-1,-6.59820E-1
-4.27368E-1,-6.56158E-1
-4.35974E-1,-6.49932E-1
-4.39849E-1,-6.48651E-1
-4.44763E-1,-6.39587E-1
-4.47448E-1,-6.38458E-1
-4.62219E-1,-6.40197E-1
-4.65606E-1,-6.41662E-1
-4.73663E-1,-6.46270E-1
END
BEGIN
0.77247E-3,5.59783E-3
1.06477E-3,1.51267E-2
0.16651E-2,2.71272E-2
0.30651E-2,3.76205E-2
0.48332E-2,4.96311E-2
0.68721E-2,6.08463E-2
0.93002E-2,7.21702E-2
1.13487E-2,8.34236E-2
1.48544E-2,9.37843E-2
1.76124E-2,1.04015E-1
2.10723E-2,1.14620E-1
2.41508E-2,1.23577E-1
0.25398E-1,1.33903E-1
0.33203E-1,1.47544E-1
0.38108E-1,1.56395E-1
0.42541E-1,1.66069E-1
0.4953E-1,1.75987E-1
0.54008E-1,1.83647E-1
0.59799E-1,1.91528E-1
0.66436E-1,1.99867E-1
0.71174E-1,2.07778E-1
0.77705E-1,2.15156E-1
0.84137E-1,2.22923E-1
0.91415E-1,2.29934E-1
0.96931E-1,2.36274E-1
1.04507E-1,2.42988E-1
1.12457E-1,2.49641E-1
1.19491E-1,2.55249E-1
1.27548E-1,2.60788E-1
1.35360E-1,2.68295E-1
1.47125E-1,2.73361E-1
1.58706E-1,2.70401E-1
1.58065E-1,2.76763E-1
1.66366E-1,2.82104E-1
1.71646E-1,2.86575E-1
1.77612E-1,2.90817E-1
1.83853E-1,2.96264E-1
1.90307E-1,3.01284E-1
1.97860E-1,3.07693E-1
2.06329E-1,3.14453E-1
2.16369E-1,3.21014E-1
2.26165E-1,3.24829E-1
2.43255E-1,3.29574E-1
2.51709E-1,3.23349E-1
2.56164E-1,3.29574E-1
2.63763E-1,3.34045E-1
2.74948E-1,3.35510E-1
2.81524E-1,3.39813E-1
2.92755E-1,3.43231E-1
3.02276E-1,3.44467E-1
3.13186E-1,3.46176E-1
3.24508E-1,3.47747E-1
3.35144E-1,3.47030E-1
3.38684E-1,3.50555E-1
3.58367E-1,3.55758E-1
3.66149E-1,3.47076E-1
3.75442E-1,3.4375E-1
3.81454E-1,3.44329E-1
3.93295E-1,3.45779E-1
4.05715E-1,3.44192E-1
4.14428E-1,3.37509E-1
4.21157E-1,3.37738E-1
4.29672E-1,3.36288E-1
4.40444E-1,3.31512E-1
4.46579E-1,3.27423E-1
4.53765E-1,3.26889E-1
4.60968E-1,3.22326E-1
4.69009E-1,3.21350E-1
4.77493E-1,3.18969E-1
4.87609E-1,3.18069E-1
4.99023E-1,3.10974E-1
5.04852E-1,3.05267E-1
5.09918E-1,2.99865E-1
5.18341E-1,2.96081E-1
5.22552E-1,2.88391E-1
5.28350E-1,2.83966E-1
5.33966E-1,2.77526E-1
5.39062E-1,2.73620E-1
5.4422E-1,2.65625E-1
5.45379E-1,2.60070E-1
5.46844E-1,2.54058E-1
5.45806E-1,2.49054E-1
5.43762E-1,2.47863E-1
5.53375E-1,2.48107E-1
5.53436E-1,2.42065E-1
5.55419E-1,2.43743E-1
5.62194E-1,2.44293E-1
5.66864E-1,2.38311E-1
5.71197E-1,2.32757E-1
5.72601E-1,2.29126E-1
5.73242E-1,2.23571E-1
5.74646E-1,2.19696E-1
5.74035E-1,2.15820E-1
5.73242E-1,2.16003E-1
5.76751E-1,2.17468E-1
5.82061E-1,2.15911E-1
5.83831E-1,2.13775E-1
5.89721E-1,2.13226E-1
5.94085E-1,2.10327E-1
5.96038E-1,2.07611E-1
6.03851E-1,2.06390E-1
6.11541E-1,1.97387E-1
6.13616E-1,1.93054E-1
6.18499E-1,1.87988E-1
6.25762E-1,1.84722E-1
6.34155E-1,1.75140E-1
6.38824E-1,1.66626E-1
6.43310E-1,1.55822E-1
6.41540E-1,1.45721E-1
6.41418E-1,1.39495E-1
6.46331E-1,1.33026E-1
6.52771E-1,1.24969E-1
6.58569E-1,1.13128E-1
6.57959E-1,1.02478E-1
6.60430E-1,0.92529E-1
6.59973E-1,0.82489E-1
6.62750E-1,0.74066E-1
6.62963E-1,0.65338E-1
6.61102E-1,0.56243E-1
6.61102E-1,0.49102E-1
6.64520E-1,0.42816E-1
6.65191E-1,0.29998E-1
6.65161E-1,0.22094E-1
6.65069E-1,0.14831E-1
6.65313E-1,0.06958E-1
6.62323E-1,-0.00885E-1
6.59484E-1,-0.05798E-1
6.60858E-1,-0.10864E-1
6.58935E-1,-0.18035E-1
6.57043E-1,-0.25360E-1
6.55181E-1,-0.29937E-1
6.55212E-1,-0.34118E-1
6.55853E-1,-0.39337E-1
6.52862E-1,-0.45501E-1
6.49688E-1,-0.48095E-1
6.45660E-1,-0.50994E-1
6.42822E-1,-0.53131E-1
6.42059E-1,-0.54321E-1
6.40350E-1,-0.53497E-1
6.40136E-1,-0.53009E-1
6.41571E-1,-0.56121E-1
6.44317E-1,-0.55145E-1
6.48071E-1,-0.56945E-1
6.51275E-1,-0.60272E-1
6.5448E-1,-0.71533E-1
6.47522E-1,-0.79925E-1
6.42303E-1,-0.84686E-1
6.40930E-1,-0.82519E-1
6.42974E-1,-0.86425E-1
6.44104E-1,-0.93048E-1
6.43859E-1,-0.95886E-1
6.43402E-1,-1.04583E-1
6.39465E-1,-1.10412E-1
6.37146E-1,-1.16363E-1
6.34765E-1,-1.21246E-1
6.35437E-1,-1.26068E-1
6.34735E-1,-1.35131E-1
6.34979E-1,-1.45111E-1
6.31683E-1,-1.54449E-1
6.26098E-1,-1.64733E-1
6.23291E-1,-1.76544E-1
6.16821E-1,-1.99432E-1
5.99975E-1,-1.93786E-1
6.04858E-1,-2.01538E-1
5.96618E-1,-2.05261E-1
5.96130E-1,-2.11669E-1
5.89904E-1,-2.23846E-1
5.88287E-1,-2.2995E-1
5.80658E-1,-2.47009E-1
5.70098E-1,-2.50885E-1
5.67352E-1,-2.61871E-1
5.56671E-1,-2.67334E-1
5.52764E-1,-2.70477E-1
5.44799E-1,-2.72399E-1
5.43884E-1,-2.83264E-1
5.34759E-1,-2.86499E-1
5.25482E-1,-2.86010E-1
5.20965E-1,-2.93823E-1
5.20477E-1,-2.93731E-1
5.09643E-1,-2.96264E-1
5.10711E-1,-2.97393E-1
5.03295E-1,-3.00994E-1
5.03936E-1,-2.97393E-1
5.04516E-1,-2.97637E-1
4.9646E-1,-3.02139E-1
5.19073E-1,-3.70971E-1
5.00274E-1,-3.17962E-1
4.95224E-1,-3.24234E-1
4.90661E-1,-3.29208E-1
4.89776E-1,-3.35113E-1
4.83505E-1,-3.25729E-1
4.81399E-1,-3.37280E-1
4.84451E-1,-3.35525E-1
4.81277E-1,-3.45169E-1
4.73007E-1,-3.54263E-1
4.68078E-1,-3.61938E-1
4.53521E-1,-3.67813E-1
4.32128E-1,-3.69796E-1
4.30908E-1,-3.72497E-1
4.30526E-1,-3.65142E-1
4.15466E-1,-3.64135E-1
END
