CITIFILE A.01.01
!Agilent Technologies,E8361A,US43140838,A.07.50.39
!Agilent E8361A: A.07.50.39
!Date: Thursday, June 17, 2010 17:13:52
!Vgs: 10
NAME CH1_DATA
VAR Freq MAG 201
DATA S22 RI
DATA S21 RI
DATA S12 RI
DATA S11 RI
DATA a1/a2 RI
DATA a2/a1 RI
VAR_LIST_BEGIN
220000000000
220525000000
221050000000
221575000000
222100000000
222625000000
223150000000
223675000000
224200000000
224725000000
225250000000
225775000000
226300000000
226825000000
227350000000
227875000000
228400000000
228925000000
229450000000
229975000000
230500000000
231025000000
231550000000
232075000000
232600000000
233125000000
233650000000
234175000000
234700000000
235225000000
235750000000
236275000000
236800000000
237325000000
237850000000
238375000000
238900000000
239425000000
239950000000
240475000000
241000000000
241525000000
242050000000
242575000000
243100000000
243625000000
244150000000
244675000000
245200000000
245725000000
246250000000
246775000000
247300000000
247825000000
248350000000
248875000000
249400000000
249925000000
250450000000
250975000000
251500000000
252025000000
252550000000
253075000000
253600000000
254125000000
254650000000
255175000000
255700000000
256225000000
256750000000
257275000000
257800000000
258325000000
258850000000
259375000000
259900000000
260425000000
260950000000
261475000000
262000000000
262525000000
263050000000
263575000000
264100000000
264625000000
265150000000
265675000000
266200000000
266725000000
267250000000
267775000000
268300000000
268825000000
269350000000
269875000000
270400000000
270925000000
271450000000
271975000000
272500000000
273025000000
273550000000
274075000000
274600000000
275125000000
275650000000
276175000000
276700000000
277225000000
277750000000
278275000000
278800000000
279325000000
279850000000
280375000000
280900000000
281425000000
281950000000
282475000000
283000000000
283525000000
284050000000
284575000000
285100000000
285625000000
286150000000
286675000000
287200000000
287725000000
288250000000
288775000000
289300000000
289825000000
290350000000
290875000000
291400000000
291925000000
292450000000
292975000000
293500000000
294025000000
294550000000
295075000000
295600000000
296125000000
296650000000
297175000000
297700000000
298225000000
298750000000
299275000000
299800000000
300325000000
300850000000
301375000000
301900000000
302425000000
302950000000
303475000000
304000000000
304525000000
305050000000
305575000000
306100000000
306625000000
307150000000
307675000000
308200000000
308725000000
309250000000
309775000000
310300000000
310825000000
311350000000
311875000000
312400000000
312925000000
313450000000
313975000000
314500000000
315025000000
315550000000
316075000000
316600000000
317125000000
317650000000
318175000000
318700000000
319225000000
319750000000
320275000000
320800000000
321325000000
321850000000
322375000000
322900000000
323425000000
323950000000
324475000000
325000000000
VAR_LIST_END
BEGIN
-0.16575432,-0.13638771
3.0799727,-1.258638
0.023856007,0.079256296
0.03700706,0.099884443
0.0029362985,0.10080529
-0.036440682,0.17919402
0.024860105,0.19143553
0.061936244,0.11625661
0.079999715,0.059158348
-0.034830865,0.0031526692
-0.11386598,-0.062098462
-0.11444253,-0.040354084
-0.12222116,-0.010402111
-0.11635882,-0.031884477
-0.01187524,-0.043379575
0.058930099,-0.010160623
0.11479515,0.06203343
0.10541631,0.059115361
0.04106554,0.050425645
-0.020924281,0.047455184
-0.079651341,-0.0030319779
-0.081747778,-0.079533465
-0.028842997,-0.053836726
0.030440466,-0.048405394
0.018684898,-0.03425435
0.068651922,-0.038550913
0.093370236,0.065848239
-0.01420766,0.078009032
-0.098679304,0.033073694
-0.087287538,0.033061203
-0.047193114,0.091111168
-0.030760571,0.04523417
-0.044542998,-0.1345865
0.21033874,-0.15878595
0.16857639,0.089309253
0.0042545791,0.076020256
0.014643434,-0.0065415618
-0.0053424728,-0.041900743
0.22208962,-0.17601757
0.13440853,0.081420332
-0.22989129,-0.050141726
0.028043745,-0.20962425
0.069698818,0.0030672071
0.0091917496,0.054032084
-0.13101499,0.13630365
-0.24308135,-0.16218641
0.42803818,-0.20171718
0.14056498,0.28043512
-0.33378413,0.091331452
-0.19329019,0.044164144
-0.13449721,-0.027666993
0.128833,-0.14352201
0.36650804,0.11501758
-0.014098628,0.29959232
-0.29810655,-0.30574167
-0.054206781,-0.23566358
0.042974092,-0.12432767
0.15445533,-0.29688096
0.26719293,0.051190119
0.028015325,0.38685998
-0.21479775,0.15838605
-0.21480943,-0.1100985
-0.14167602,-0.21769692
-0.17537811,0.045026321
0.0076460675,-0.086463399
0.20397921,-0.29366142
0.32039192,-0.088911563
0.24087109,0.045031797
0.032394662,0.30537888
0.017288126,0.20493664
0.082044087,0.16156812
0.023551228,0.18040338
-0.56749845,-0.13651228
-0.44957513,-0.19148505
0.17501397,-0.26781449
0.41546866,-0.16935024
0.21281481,-0.041943807
0.082226291,-0.11888126
0.24952759,0.23438661
0.14825238,0.35539731
-0.21650511,0.43543261
-0.31117845,-0.074124895
-0.34042186,-0.32118568
-0.081428044,-0.042188197
0.050208718,-0.045618992
0.073259458,-0.20835888
0.24634735,-0.18647264
0.064196371,0.30564913
-0.096039258,0.43183923
-0.28312054,-0.16739149
-0.084053434,-0.34584811
0.028779443,-0.24886245
0.24411197,-0.27867123
0.13252199,0.22275294
-0.15262428,0.41112927
-0.25926733,0.011924539
0.11090953,-0.066381752
0.32941744,-0.019320216
0.1458299,-0.044990394
-0.019057024,0.061380621
-0.22538108,0.10943551
-0.17693564,-0.20340942
0.075957119,-0.092255436
0.14729394,0.19181627
-0.20415266,0.12243003
-0.1142595,-0.0053944634
0.13718934,-0.15956126
0.20763361,-0.23424041
-0.029588122,0.15994261
-0.4764359,0.088718757
0.099971533,-0.29536626
0.37019637,0.18481459
0.025372967,0.4710606
-0.22225972,0.049749926
-0.41588312,-0.081591733
-0.00072162895,-0.26842761
0.50715131,0.11427561
0.040759157,0.4548322
-0.43923593,0.14832133
-0.016793322,-0.21579567
0.32301244,-0.23976359
0.39610547,-0.13619232
0.066330783,-0.029453654
-0.43029094,0.10298483
-0.28018805,-0.11306681
0.19707751,-0.044305686
0.15384996,0.2875194
-0.26053005,0.20608516
-0.10073602,-0.067090794
0.0066471575,-0.23371693
0.26344866,-0.16549355
0.064026736,0.075911388
-0.4558126,0.22351943
-0.15275267,-0.10387391
0.41160926,-0.11518102
0.3302919,0.068531916
-0.062702857,0.14937466
-0.22697408,0.082123935
-0.22751333,-0.16953553
0.25820234,-0.16568232
0.19602506,0.11599629
-0.22326589,0.32059065
-0.21411377,-0.11976904
0.13564645,-0.29445302
0.19690168,-0.14641733
0.044911571,0.24081352
-0.20159985,0.29829139
-0.12540199,-0.078734539
0.29401103,-0.14586087
0.15848453,-0.032619625
-0.20484006,0.092993259
-0.14191858,-0.004264418
-0.057601362,-0.069495216
0.090184875,-0.061472271
0.0554596,0.17062521
-0.095269352,0.07887093
-0.0061651636,-0.11598893
0.16597286,-0.10192641
-0.0038741301,0.017237183
-0.14534152,0.15437427
-0.06234495,0.059597753
0.047142662,-0.13000578
0.20706752,-0.064159758
-0.040882982,0.11956482
-0.21419238,0.020338647
-0.086464837,-0.08222618
0.14526851,-0.1085812
0.081956185,0.014312773
0.052475743,0.23479664
-0.08021038,0.017923919
-0.10629457,-0.30314872
0.063067056,-0.10461959
-0.019412175,0.27298436
-0.055537004,0.27309373
0.018914413,-0.012008252
0.22485046,-0.28490198
0.10272897,-0.10592347
-0.21048573,0.26924869
-0.070604034,-0.23418878
0.20761968,-0.17206733
0.025084356,0.1845268
-0.15974253,0.25351763
-0.11414651,-0.05817344
0.26855814,-0.30639598
0.35960481,-0.010167203
-0.45523584,0.090223677
-0.71637571,-0.015956126
0.57096899,-0.088021412
0.62226117,-0.11265323
0.040545568,0.32699865
-0.72933316,0.39283699
-0.42909044,-0.33659136
0.47984993,-0.23846906
0.24561657,0.71063155
-0.49702793,-0.087339148
0.16599867,-0.12822361
0.77639073,0.57005286
0.52687407,0.36015218
-0.21790975,-0.72871023
0.18755837,-0.9542172
0.015132616,0.31118345
END
BEGIN
-1.5213529,-1.938835
0.71273923,0.21370463
-0.018183554,-0.97598255
-0.4963991,-0.96936709
-0.64512908,-0.89935869
-1.1788036,0.14794633
-0.50682783,0.96118802
0.82074583,0.42167106
0.90597528,0.39685273
0.92339689,-0.59049213
1.0707372,-0.081294693
0.87820435,-0.28750566
0.0201812,-0.90581936
-0.37359715,-0.86221164
-0.81727207,-0.53681982
-0.93349975,-0.24734052
-0.43069437,0.8337543
-0.40046185,0.78802556
-0.130327,0.85236764
0.36720553,0.68872529
0.53694952,0.47936919
0.65589792,0.044617146
0.57286322,-0.13172743
0.37111381,-0.35960859
-0.1742605,-0.48431408
-0.29991311,-0.47276121
-0.61467481,-0.15776818
-0.58722901,-0.0066739912
-0.47375625,0.20194557
-0.042454865,0.4270477
0.25314301,0.40953067
0.51231176,-0.1625952
0.40726498,-0.44669607
-0.54371887,-0.3885901
-0.47087324,-0.42949384
-0.56795335,-0.2599054
-0.59593558,0.085105143
-0.58868909,0.15358189
-0.43833217,0.41414538
-0.21496344,0.56700236
0.43547875,0.4269065
0.6129027,0.24699964
0.65558255,0.048641294
0.66300905,-0.20874047
0.5284822,-0.52955359
0.21433762,-0.7600463
0.036168616,-0.79343498
-0.10439257,-0.80736101
-0.63538605,-0.44261184
-0.60791403,0.38164693
-0.064304195,0.74725503
0.33597493,0.68137568
0.79512829,0.093657225
0.73240364,-0.45528668
0.31081805,-0.79423302
-0.21588078,-0.85955441
-0.64282733,-0.59252685
-0.87313998,0.07842233
-0.49739289,0.69831949
0.34027144,0.71284938
0.76232988,-0.035511076
0.49671677,-0.69738841
-0.046720169,-0.93396819
-0.56458437,-0.82781428
-0.9516241,-0.5671491
-1.0594447,0.041184925
-0.79527354,0.43199742
-0.027908511,0.76156938
0.32329133,0.69611323
0.59399331,0.56065345
0.81759775,0.35089514
0.95352018,-0.28283459
0.61542451,-0.84924984
0.39864868,-0.92884511
-0.36860695,-0.89868271
-0.81355548,-0.46028295
-0.96510869,-0.10421202
-0.94621116,0.36322755
-0.50748217,1.0824269
0.051711228,1.2422214
0.60314101,1.010981
1.1161966,0.32032728
1.0254834,-0.39789236
0.44931319,-1.0068635
-0.32930991,-0.98371255
-0.81372583,-0.58018082
-0.96368146,-0.29114267
-0.9087137,-0.092039756
-1.0424118,0.13090865
-0.78833383,0.71979076
-0.32179418,1.0363084
0.13642007,1.0258962
0.61294657,0.77549094
0.8208639,0.50533962
0.81529891,0.32342273
0.77194059,-0.20614681
0.57148397,-0.47400588
0.49861094,-0.47972071
0.0996828,-0.68492937
-0.21719983,-0.63671649
-0.14180237,-0.69539464
-0.35219121,-0.67628944
-0.68108523,-0.42520952
-0.77102757,-0.48081559
-0.95926845,-0.32596695
-1.0888373,-0.077979065
-1.1808249,0.0031383734
-1.0772209,0.56017959
-0.95058864,0.85523099
-0.62677491,1.1292535
-0.2382147,1.3390207
0.14508347,1.3366616
-0.21560596,1.2991812
0.16015686,1.2057178
0.38097277,1.0494159
0.31344563,1.0356356
0.96262938,0.44973731
0.91648948,0.45005229
0.88062328,0.16225033
0.74295545,-0.32763416
0.76655281,-0.31284362
0.62609518,-0.58333147
0.23102909,-0.79760534
-0.18995425,-0.83052003
-0.064247325,-0.87853521
-0.6925894,-0.70642859
-0.72696227,-0.84039992
-0.39201134,-1.131606
-1.1535949,-0.5033409
-1.0837024,-0.60299236
-1.1073639,-0.39323023
-1.1380365,-0.14464861
-1.1449928,0.18365264
-1.1729438,0.080406263
-0.9822489,0.46968839
-0.93613434,0.6174466
-0.99000669,0.43248937
-0.50778574,0.88185567
-0.82269061,0.57370448
-0.52542734,0.82252491
0.14927895,0.9499824
0.30500457,0.8485381
0.027839513,0.89069206
0.23333681,0.87761754
-0.10102055,0.96028739
-0.43426394,0.91576147
-0.11850493,1.0344322
0.10377649,1.0157484
-0.11510845,0.9563669
0.54024327,0.74926513
0.35573271,0.88053012
0.13885228,0.92287385
0.45992339,0.76496047
0.40762681,0.77007753
0.44231772,0.73921508
0.64949554,0.48616678
0.77014774,0.25082901
0.67016262,0.4251526
0.71186984,0.20465457
0.73685896,0.28407261
0.69980383,0.27511868
0.7735092,0.060095541
0.76802975,0.14387526
0.7897073,0.11454307
0.75855583,-0.30710739
0.6959874,-0.36198965
0.75876623,-0.24641429
0.39817095,-0.70202899
0.36991408,-0.75843686
0.57547027,-0.67788947
0.081799842,-0.94737053
-0.22507873,-0.97562635
-0.77860469,-0.76347721
-0.92741525,-0.58791512
-1.08742,-0.29456139
-1.0842597,-0.38228083
-1.0859326,-0.38552302
-1.1012628,-0.45311099
-1.2546088,-0.23291059
-1.0845653,0.81756818
-1.1283662,0.83227247
-1.1050202,0.74884027
-0.82228816,0.9409706
-0.49914923,1.1683882
0.043493021,1.2215029
0.070101433,1.2826209
0.075502753,1.3755859
0.63672167,1.3678356
0.71985519,1.5244576
0.65113676,1.7435819
0.91088808,1.972141
2.4835582,-0.085328892
2.7482297,0.82354295
3.3900964,0.62688446
4.0846777,-0.18834119
4.8073034,1.4426749
6.4563484,-1.7546549
7.1046081,2.9714026
6.8717217,3.2439837
4.2518878,4.5149732
4.567204,-1.2259375
END
BEGIN
-0.86015958,-2.6242621
0.71039188,-0.010302568
0.01314803,0.79747844
-0.6900757,-0.40219682
0.52545977,-0.70590377
-0.32912749,0.76290643
0.20448309,-0.72220588
-0.27692986,0.66706139
-0.71828562,-0.27721572
0.81261736,0.17476583
0.13249949,0.87861431
-0.86992276,0.29045025
0.80635053,-0.40754998
-0.6470539,0.45605963
0.57368368,-0.45145094
-0.33432692,0.60656852
0.42588666,-0.56740761
0.36239097,0.56953233
-0.68350637,-0.059329711
0.64282376,0.091961496
-0.62492412,0.14712147
0.63485646,-0.06801147
-0.54516518,0.24006793
0.4269093,-0.32170004
-0.34097147,0.29120046
-0.23158246,-0.36625668
0.34851536,0.29533634
-0.46113738,-0.017735705
0.2546154,-0.32539696
-0.071891144,0.39436319
-0.23537819,-0.25940013
0.17284255,0.26463875
-0.23525262,-0.13684133
0.053471401,0.2717174
-0.22358631,-0.13170227
0.17073779,-0.041090485
-0.27780485,0.075574405
0.39326546,-0.17703894
-0.51064932,0.27108952
0.58374619,-0.35598877
-0.68817836,0.02198945
0.6053713,-0.25649229
-0.39163923,0.403943
0.1984404,-0.44917849
-0.040501501,0.56439483
-0.063233696,-0.65627176
0.27177247,0.5850929
-0.5582391,-0.37275046
0.49398285,0.50164664
-0.42372793,-0.65833551
0.19150898,0.84439731
-0.41486818,-0.82128757
0.65180451,0.86472523
-0.87879246,-0.93469489
1.1655446,0.86179912
-1.5989225,-0.60584873
1.8171692,-0.58909959
-1.4944149,0.53378677
1.3891071,-0.50708354
-1.1865072,0.41254112
0.91351676,-0.60923618
-0.40016371,0.93985611
-0.13983627,-0.93853849
0.6286217,0.61564487
-0.91836804,0.061843917
0.62507749,-0.84962195
0.4291853,1.0542769
-1.096577,0.010948458
0.23260057,-1.1456861
1.0350426,0.57117623
-1.0801072,0.41480207
0.76467204,-0.85030931
-0.16534352,1.0336784
-0.86420763,-0.65551156
1.2556605,0.054670457
-0.86414129,0.74667156
-0.01396267,-1.0526736
0.69258231,0.7416572
-1.0535469,-0.14834699
0.62698305,-0.97570193
0.48423028,0.97714412
-1.0597255,-0.30937612
0.79908198,-0.66854405
-0.22781207,0.99003392
-0.24267815,-0.93897849
0.76045066,0.57785058
-0.87181193,0.17230998
0.38249484,-0.82374442
0.35113534,0.91568244
-0.56721109,-0.8237474
0.82714361,0.5667845
-1.1018205,-0.14146894
1.2073764,-0.11794478
-0.69832182,0.82354903
-0.12146731,-0.85490549
0.28143504,0.89419186
-0.59029013,-0.78575742
0.86482453,0.47216746
-0.79617995,-0.61652213
0.94948155,0.3463138
-0.77783185,0.43297875
0.43810743,-0.65873557
-0.15605171,0.74157554
-0.32823408,-0.66864711
0.380357,0.56953478
-0.493193,-0.41181964
0.61543047,0.14345732
-0.5954237,0.058210116
0.53743702,-0.33320078
-0.6174584,0.2494338
0.77036369,-0.05653641
-0.83464414,0.061612956
0.59643739,-0.72355998
-0.28185925,1.0167452
-0.30368108,-1.1185169
1.0771868,0.67570102
-0.75904077,-0.92097849
1.0181016,0.28914469
-0.91411948,-0.034154277
0.97439605,0.16857477
-0.93597901,0.38326433
0.73756576,-0.66401994
-0.5795449,0.69733554
0.37154251,-0.68464339
0.091252513,0.64449531
0.092787974,-0.56858397
0.20576069,0.4696621
-0.45781955,-0.14613642
0.42567703,0.27030805
-0.50562483,0.088856302
0.45983857,-0.27902111
-0.4157981,0.44033992
0.38169715,-0.54844695
0.039299209,0.73371214
-0.1654084,-0.76810819
0.44217414,0.62291354
-0.70524693,-0.11336215
0.64397198,0.07080321
-0.34375378,0.52134389
0.32811442,-0.52371919
-0.45284575,0.4394888
0.28554472,-0.62488395
0.29045179,0.70996827
-0.40671682,-0.66444498
0.67325622,0.15275925
-0.53263265,0.36724752
0.38133195,-0.43196809
-0.2227633,0.45953807
-0.13624567,-0.42920366
0.060399007,0.45265722
-0.39167723,-0.2681857
0.46771315,-0.10863157
-0.41608417,0.18464173
0.20573026,-0.34816444
0.0023713999,0.37120822
-0.069580041,-0.32811302
0.11338872,0.2916925
-0.30423626,-0.096186355
0.33614826,-0.0045377873
-0.23490845,0.24110703
0.0079171667,-0.34272215
0.13788259,0.30956608
-0.30879101,-0.10993233
0.33331704,-0.069075353
-0.29289326,0.19335389
0.1224099,-0.34698483
0.24493259,0.3014352
-0.24568255,-0.32716316
0.37541661,0.07853204
-0.27850777,0.25142604
0.25991541,-0.27106562
-0.20318843,0.34273222
0.24089065,-0.37110764
-0.060482729,0.48310417
-0.038645636,-0.50713325
0.37396058,0.39048836
-0.57616794,-0.18246602
0.62314844,-0.13252224
-0.62103015,0.29933813
0.70842856,-0.089669779
-0.57416803,0.47447777
0.13215405,-0.82290608
0.13902189,1.0107621
-0.22203158,-1.0804886
0.14941922,1.0130014
-0.63755238,-0.76383132
1.0558091,0.24862695
-1.1773493,-0.21546936
1.1027796,-0.70394534
-0.43548447,1.3593539
-0.12281029,-1.4598935
-0.88344139,1.1202819
0.033370107,-1.2493628
-0.2011821,1.2304895
0.61230004,-1.0344855
-0.26256251,1.2149488
0.8072139,-1.0362138
0.058649775,1.5194874
0.16131464,-1.6156005
0.78028405,1.4905645
0.30679232,-1.7013237
END
BEGIN
0.96801722,0.25877583
-0.51019949,0.2779645
0.0094327778,-0.16740206
-0.06161001,-0.14481632
-0.16293001,0.096461952
-0.23775883,-0.044897627
-0.20070679,0.038530167
-0.16690257,0.08814536
-0.11772889,0.21506722
-0.14588982,0.081586294
0.20148146,0.063269459
0.30878592,0.0066913823
0.1209468,-0.088855937
0.23917253,-0.13479161
0.19996651,-0.11674891
0.16701746,-0.008715814
0.0034384402,-0.069169514
0.15274067,-0.14581037
0.022969192,-0.069365188
-0.054379821,-0.092942104
0.024691053,-0.12776041
0.073072329,-0.085385852
0.018156879,-0.043778695
0.090990178,-0.021747846
0.10344408,0.025739109
0.027950825,-0.058353398
0.024528066,-0.10908242
0.03013381,-0.088686526
0.012146126,-0.040623195
-0.032691725,-0.050597873
0.0062866258,-0.063527666
-0.03244907,-0.024905054
-0.033139244,-0.017572915
-0.015980901,-0.021111401
-0.0066484762,-0.017114522
-0.0058830576,-0.0068227383
-0.029211963,-0.010629012
-0.020991219,-0.034906227
-0.040422212,0.024745816
-0.043236475,-0.027592598
-0.05505722,-0.028906969
-0.05117894,0.0029726108
-0.048884902,0.041960698
-0.034939997,0.023208419
-0.017889602,0.028388299
-0.0098534292,0.039228447
-0.056544997,0.063834496
-0.0063325521,0.044563279
-0.016739942,0.027359299
-0.004341857,0.079506785
-0.067937285,0.036417592
-0.019820092,0.070597947
-0.074259527,0.10289688
-0.084472194,0.047722455
-0.11022574,-0.013346758
-0.14536953,0.085608222
-0.057505377,0.072397426
-0.085554793,-0.018555362
-0.028669255,0.018823592
-0.085394174,-0.098838016
-0.020072261,-0.12240267
-0.069885112,-0.10414002
-0.012401647,-0.10364904
0.087964907,-0.15264238
0.032414448,-0.083713725
0.080979757,-0.044802353
0.11385532,-0.044827022
0.091027923,0.068183288
0.12405366,-0.02672801
0.12409246,-0.088983312
0.086956002,0.0055291099
0.046702504,0.12911184
0.10011353,0.072935134
-0.049682219,0.13932358
-0.062080435,0.076380104
-0.082237579,0.039087571
-0.12832139,0.045542363
-0.098954201,-0.024795381
-0.039916661,-0.060313329
-0.072141387,-0.13633227
-0.10399886,-0.14917727
0.047799367,-0.073612563
-0.027297804,-0.097804815
0.1301901,-0.023832273
0.13386472,0.032937683
0.064742006,0.067249112
0.011185472,0.071462505
-0.061095126,0.13619751
-0.039009042,0.064546235
-0.077001452,-0.022725798
-0.14675336,-0.028865045
-0.036903117,-0.1431126
-0.044265963,-0.14362934
0.023505611,-0.028302802
0.10279384,-0.005524355
0.12144241,0.084550545
0.026202993,0.023538522
-0.06610962,0.1243944
-0.09923774,0.017663928
-0.079950772,-0.072072081
-0.074173853,-0.047420289
0.061124615,-0.071308859
0.10127508,-0.10109295
0.065186828,-0.0013235844
0.017882848,0.04828544
-0.07132078,0.13612702
-0.065592095,0.0085142637
-0.085422993,-0.0061496864
-0.012069429,-0.0087642316
0.063709907,-0.12536317
0.059560411,-0.030851753
0.06092526,0.066925161
0.030933704,0.14244922
-0.09825518,0.093608536
-0.065558977,-0.048045717
-0.10197196,-0.11307547
0.06385164,-0.10953525
0.078322664,-0.070732772
-0.016192665,0.055396289
0.0018443422,0.11358663
-0.10914697,0.019716665
-0.07961601,-0.046771605
-0.024060445,-0.076381467
0.013098037,-0.076149791
0.080602467,0.044858359
0.028352588,0.057462912
-0.038107377,0.075132117
-0.033116233,0.03372838
0.026650937,-0.087695263
