CITIFILE A.01.01
#NA VERSION HP8510C.07.14
NAME DATA
#NA REGISTER 4
VAR FREQ MAG 101
DATA S[2,2] RI
SEG_LIST_BEGIN
SEG 1000000000 21000000000 101
SEG_LIST_END
COMMENT       YEAR MONTH DAY HOUR MINUTE SECONDS
CONSTANT TIME 2001   01   10  20    04    47.0
BEGIN
-3.08059E-1,-1.67602E-1
-2.89642E-1,-2.02102E-1
-2.65976E-1,-2.34741E-1
-2.36145E-1,-2.63839E-1
-2.01309E-1,-2.87612E-1
-1.62246E-1,-3.05252E-1
-1.20880E-1,-3.16162E-1
-0.80001E-1,-3.20205E-1
-0.41015E-1,-3.1987E-1
-0.06027E-1,-3.16574E-1
0.25177E-1,-3.13461E-1
0.54031E-1,-3.11462E-1
0.83435E-1,-3.11126E-1
1.16012E-1,-3.09829E-1
1.53762E-1,-3.04504E-1
1.96197E-1,-2.91061E-1
2.41058E-1,-2.66525E-1
2.82989E-1,-2.29599E-1
3.17245E-1,-1.83181E-1
3.39706E-1,-1.32568E-1
3.50540E-1,-0.84884E-1
3.52233E-1,-0.46340E-1
3.50494E-1,-0.18783E-1
3.50418E-1,-0.00824E-1
3.55835E-1,0.13992E-1
3.66745E-1,0.32455E-1
3.81256E-1,0.61080E-1
3.92730E-1,1.04538E-1
3.94821E-1,1.61483E-1
3.81256E-1,2.25250E-1
3.52066E-1,2.84973E-1
3.12316E-1,3.31420E-1
2.73208E-1,3.61618E-1
2.39532E-1,3.76541E-1
2.15133E-1,3.82385E-1
1.98974E-1,3.87329E-1
1.85607E-1,3.97079E-1
1.69021E-1,4.16824E-1
1.39236E-1,4.43603E-1
0.94436E-1,4.72503E-1
0.34606E-1,4.93301E-1
-0.31326E-1,4.98809E-1
-0.91949E-1,4.90203E-1
-1.40426E-1,4.64172E-1
-1.75064E-1,4.32083E-1
-1.96502E-1,3.97827E-1
-2.08877E-1,3.65799E-1
-2.18582E-1,3.37448E-1
-2.32040E-1,3.13430E-1
-2.52639E-1,2.89978E-1
-2.79541E-1,2.62512E-1
-3.06457E-1,2.25219E-1
-3.27560E-1,1.80069E-1
-3.38043E-1,1.31057E-1
-3.34732E-1,0.82305E-1
-3.19351E-1,0.37078E-1
-2.95898E-1,-0.01785E-1
-2.67883E-1,-0.33783E-1
-2.38655E-1,-0.59387E-1
-2.10594E-1,-0.79109E-1
-1.87866E-1,-0.97587E-1
-1.67541E-1,-1.13624E-1
-1.47819E-1,-1.30859E-1
-1.26525E-1,-1.48788E-1
-1.01600E-1,-1.66229E-1
-0.72219E-1,-1.80862E-1
-0.38414E-1,-1.90513E-1
-0.02639E-1,-1.94831E-1
0.33073E-1,-1.93664E-1
0.69061E-1,-1.89277E-1
1.03614E-1,-1.82357E-1
1.36619E-1,-1.72813E-1
1.68289E-1,-1.62536E-1
1.98440E-1,-1.52366E-1
2.27020E-1,-1.43043E-1
2.53784E-1,-1.32415E-1
2.78701E-1,-1.19979E-1
3.00888E-1,-1.04522E-1
3.21121E-1,-0.85357E-1
3.40011E-1,-0.61370E-1
3.6026E-1,-0.30456E-1
3.79791E-1,0.05218E-1
3.98483E-1,0.43563E-1
4.14596E-1,0.81207E-1
4.32342E-1,1.14593E-1
4.52026E-1,1.42272E-1
4.71374E-1,1.69586E-1
4.86084E-1,1.99264E-1
4.93957E-1,2.32940E-1
4.90905E-1,2.78640E-1
4.71054E-1,3.34198E-1
4.31839E-1,3.97018E-1
3.78295E-1,4.51690E-1
3.24981E-1,4.92935E-1
2.86254E-1,5.23559E-1
2.64221E-1,5.53619E-1
2.54943E-1,5.87158E-1
2.38006E-1,6.27105E-1
2.0224E-1,6.63757E-1
1.39892E-1,6.92993E-1
0.46173E-1,6.93023E-1
END
